# vsim -c work.axi4_tb -do "run -all; quit -sim" -l transcript_axi4.txt 
# Start time: 16:40:21 on Sep 04,2026
# ** Note: (vsim-8009) Loading existing optimized design _opt
# Loading sv_std.std
# Loading work.axi4_testbench_top_sv_unit(fast)
# Loading work.axi4_tb(fast)
# Loading work.axi4_slave_wrapper(fast)
# Loading work.axi4_write_slave_burst(fast)
# Loading work.axi4_read_slave(fast)
# Loading work.axi4_if(fast)
# run -all
# [WRITE_SLAVE] Memory initialized to 0x0
# [ENV] Environment created
# [ENV] Building environment...
# [ENV]   Agent created and built
# [SCOREBOARD] Memory initialized to 0x0
# [ENV]   Scoreboard created
# [COVERAGE] Covergroup initialized
# [ENV]   Coverage created
# [ENV] Build complete
# 
# [ENV] Starting all components...
# 
# [ENV] All components running in background
# 
# [AGENT] Agent started
# [GENERATOR] Starting to generate 50 transactions
# [GENERATOR] Beat 0: data=0x12153524 wstrb=0111
# [GENERATOR] Beat 1: data=0xc0895e81 wstrb=0001
# [GENERATOR] Beat 2: data=0x8484d609 wstrb=0101
# [GENERATOR] Beat 3: data=0xb1f05663 wstrb=0011
# [GENERATOR] Beat 4: data=0x06b97b0d wstrb=0111
# [GENERATOR] Beat 5: data=0x46df998d wstrb=1111
# [GENERATOR] Beat 6: data=0xb2c28465 wstrb=0110
# [GENERATOR] Beat 7: data=0x89375212 wstrb=0010
# [GENERATOR] Beat 8: data=0x00f3e301 wstrb=0101
# [GENERATOR] Beat 9: data=0x06d7cd0d wstrb=0100
# [GENERATOR] Beat 10: data=0x3b23f176 wstrb=1101
# [GENERATOR] Beat 11: data=0x1e8dcd3d wstrb=0001
# [GENERATOR] Stored WRITE[0]: addr=0x000000d0 len=11 size=1 burst=1
# [GENERATOR] Transaction [1]: len=11 size=1 burst=1 addr=0x000000d0 is_write=1
# [GENERATOR] READ selected from stored WRITE[0]
# [GENERATOR] READ: addr=0x000000d0 len=11 size=1 burst=1
# [GENERATOR] Transaction [2]: len=11 size=1 burst=1 addr=0x000000d0 is_write=0
# [GENERATOR] Beat 0: data=0x76d457ed wstrb=1101
# [GENERATOR] Beat 1: data=0x462df78c wstrb=0010
# [GENERATOR] Beat 2: data=0x7cfde9f9 wstrb=0101
# [GENERATOR] Beat 3: data=0xe33724c6 wstrb=1001
# [GENERATOR] Beat 4: data=0xe2f784c5 wstrb=1001
# [GENERATOR] Beat 5: data=0xd513d2aa wstrb=0110
# [GENERATOR] Beat 6: data=0x72aff7e5 wstrb=1011
# [GENERATOR] Beat 7: data=0xbbd27277 wstrb=1110
# [GENERATOR] Beat 8: data=0x8932d612 wstrb=1010
# [GENERATOR] Beat 9: data=0x47ecdb8f wstrb=1001
# [GENERATOR] Beat 10: data=0x793069f2 wstrb=0100
# [GENERATOR] Stored WRITE[1]: addr=0x000002a4 len=10 size=1 burst=0
# [GENERATOR] Transaction [3]: len=10 size=1 burst=0 addr=0x000002a4 is_write=1
# [GENERATOR] Beat 0: data=0xe77696ce wstrb=1011
# [GENERATOR] Beat 1: data=0xf4007ae8 wstrb=0110
# [GENERATOR] Beat 2: data=0xe2ca4ec5 wstrb=1011
# [GENERATOR] Beat 3: data=0x2e58495c wstrb=1011
# [GENERATOR] Beat 4: data=0xde8e28bd wstrb=1011
# [GENERATOR] Stored WRITE[2]: addr=0x000003f2 len=4 size=1 burst=1
# [GENERATOR] Transaction [4]: len=4 size=1 burst=1 addr=0x000003f2 is_write=1
# [GENERATOR] READ selected from stored WRITE[2]
# [GENERATOR] READ: addr=0x000003f2 len=4 size=1 burst=1
# [GENERATOR] Transaction [5]: len=4 size=1 burst=1 addr=0x000003f2 is_write=0
# [GENERATOR] Beat 0: data=0x96ab582d wstrb=1011
# [GENERATOR] Beat 1: data=0xb2a72665 wstrb=1000
# [GENERATOR] Beat 2: data=0xb1ef6263 wstrb=1101
# [GENERATOR] Beat 3: data=0x0573870a wstrb=1111
# [GENERATOR] Beat 4: data=0xc03b2280 wstrb=0101
# [GENERATOR] Beat 5: data=0x10642120 wstrb=1000
# [GENERATOR] Beat 6: data=0x557845aa wstrb=1000
# [GENERATOR] Beat 7: data=0xcecccc9d wstrb=1100
# [GENERATOR] Stored WRITE[3]: addr=0x0000029e len=7 size=0 burst=0
# [GENERATOR] Transaction [6]: len=7 size=0 burst=0 addr=0x0000029e is_write=1
# [GENERATOR] READ selected from stored WRITE[3]
# [GENERATOR] READ: addr=0x0000029e len=7 size=0 burst=0
# [GENERATOR] Transaction [7]: len=7 size=0 burst=0 addr=0x0000029e is_write=0
# [GENERATOR] READ selected from stored WRITE[2]
# [GENERATOR] READ: addr=0x000003f2 len=4 size=1 burst=1
# [GENERATOR] Transaction [8]: len=4 size=1 burst=1 addr=0x000003f2 is_write=0
# [GENERATOR] READ selected from stored WRITE[1]
# [GENERATOR] READ: addr=0x000002a4 len=10 size=1 burst=0
# [GENERATOR] Transaction [9]: len=10 size=1 burst=0 addr=0x000002a4 is_write=0
# [GENERATOR] Beat 0: data=0xcb203e96 wstrb=1100
# [GENERATOR] Beat 1: data=0x8983b813 wstrb=0010
# [GENERATOR] Beat 2: data=0x86bc380d wstrb=1110
# [GENERATOR] Beat 3: data=0xa9a7d653 wstrb=0010
# [GENERATOR] Beat 4: data=0x359fdd6b wstrb=1001
# [GENERATOR] Beat 5: data=0xeaa62ad5 wstrb=0010
# [GENERATOR] Beat 6: data=0x81174a02 wstrb=0111
# [GENERATOR] Beat 7: data=0xd7563eae wstrb=0010
# [GENERATOR] Beat 8: data=0x0effe91d wstrb=0110
# [GENERATOR] Stored WRITE[4]: addr=0x000002b6 len=8 size=1 burst=0
# [GENERATOR] Transaction [10]: len=8 size=1 burst=0 addr=0x000002b6 is_write=1
# [GENERATOR] Beat 0: data=0xe7c572cf wstrb=1100
# [GENERATOR] Beat 1: data=0x11844923 wstrb=0100
# [GENERATOR] Beat 2: data=0x0509650a wstrb=0111
# [GENERATOR] Beat 3: data=0xe5730aca wstrb=0011
# [GENERATOR] Beat 4: data=0x9e314c3c wstrb=0010
# [GENERATOR] Beat 5: data=0x7968bdf2 wstrb=1110
# [GENERATOR] Stored WRITE[5]: addr=0x000003ac len=5 size=1 burst=0
# [GENERATOR] Transaction [11]: len=5 size=1 burst=0 addr=0x000003ac is_write=1
# [GENERATOR] Beat 0: data=0x452e618a wstrb=1110
# [GENERATOR] Beat 1: data=0x20c4b341 wstrb=1010
# [GENERATOR] Beat 2: data=0xec4b34d8 wstrb=0001
# [GENERATOR] Beat 3: data=0x3c20f378 wstrb=0111
# [GENERATOR] Beat 4: data=0xc48a1289 wstrb=1110
# [GENERATOR] Beat 5: data=0x75c50deb wstrb=1000
# [GENERATOR] Beat 6: data=0x5b0265b6 wstrb=1111
# [GENERATOR] Beat 7: data=0x634bf9c6 wstrb=1001
# [GENERATOR] Beat 8: data=0x571513ae wstrb=1111
# [GENERATOR] Beat 9: data=0xde7502bc wstrb=0111
# [GENERATOR] Beat 10: data=0x150fdd2a wstrb=0001
# [GENERATOR] Stored WRITE[6]: addr=0x000002ec len=10 size=1 burst=0
# [GENERATOR] Transaction [12]: len=10 size=1 burst=0 addr=0x000002ec is_write=1
# [GENERATOR] READ selected from stored WRITE[4]
# [GENERATOR] READ: addr=0x000002b6 len=8 size=1 burst=0
# [GENERATOR] Transaction [13]: len=8 size=1 burst=0 addr=0x000002b6 is_write=0
# [GENERATOR] READ selected from stored WRITE[6]
# [GENERATOR] READ: addr=0x000002ec len=10 size=1 burst=0
# [GENERATOR] Transaction [14]: len=10 size=1 burst=0 addr=0x000002ec is_write=0
# [GENERATOR] READ selected from stored WRITE[6]
# [GENERATOR] READ: addr=0x000002ec len=10 size=1 burst=0
# [GENERATOR] Transaction [15]: len=10 size=1 burst=0 addr=0x000002ec is_write=0
# [GENERATOR] READ selected from stored WRITE[5]
# [GENERATOR] READ: addr=0x000003ac len=5 size=1 burst=0
# [GENERATOR] Transaction [16]: len=5 size=1 burst=0 addr=0x000003ac is_write=0
# [GENERATOR] READ selected from stored WRITE[3]
# [GENERATOR] READ: addr=0x0000029e len=7 size=0 burst=0
# [GENERATOR] Transaction [17]: len=7 size=0 burst=0 addr=0x0000029e is_write=0
# [GENERATOR] READ selected from stored WRITE[3]
# [GENERATOR] READ: addr=0x0000029e len=7 size=0 burst=0
# [GENERATOR] Transaction [18]: len=7 size=0 burst=0 addr=0x0000029e is_write=0
# [GENERATOR] Beat 0: data=0x85d79a0b wstrb=0011
# [GENERATOR] Beat 1: data=0xb897be71 wstrb=1000
# [GENERATOR] Beat 2: data=0x42f24185 wstrb=1110
# [GENERATOR] Beat 3: data=0x27f2554f wstrb=0010
# [GENERATOR] Beat 4: data=0x9dcc603b wstrb=1000
# [GENERATOR] Beat 5: data=0x1d06333a wstrb=0111
# [GENERATOR] Beat 6: data=0xbf23327e wstrb=1011
# [GENERATOR] Beat 7: data=0x0aaa4b15 wstrb=1111
# [GENERATOR] Beat 8: data=0x78d99bf1 wstrb=0011
# [GENERATOR] Stored WRITE[7]: addr=0x00000375 len=8 size=0 burst=1
# [GENERATOR] Transaction [19]: len=8 size=0 burst=1 addr=0x00000375 is_write=1
# [GENERATOR] READ selected from stored WRITE[3]
# [GENERATOR] READ: addr=0x0000029e len=7 size=0 burst=0
# [GENERATOR] Transaction [20]: len=7 size=0 burst=0 addr=0x0000029e is_write=0
# [GENERATOR] READ selected from stored WRITE[2]
# [GENERATOR] READ: addr=0x000003f2 len=4 size=1 burst=1
# [GENERATOR] Transaction [21]: len=4 size=1 burst=1 addr=0x000003f2 is_write=0
# [GENERATOR] READ selected from stored WRITE[2]
# [GENERATOR] READ: addr=0x000003f2 len=4 size=1 burst=1
# [GENERATOR] Transaction [22]: len=4 size=1 burst=1 addr=0x000003f2 is_write=0
# [GENERATOR] Beat 0: data=0x6c9c4bd9 wstrb=0011
# [GENERATOR] Beat 1: data=0x31230762 wstrb=1100
# [GENERATOR] Beat 2: data=0x2635fb4c wstrb=1101
# [GENERATOR] Beat 3: data=0x4fa1559f wstrb=1001
# [GENERATOR] Beat 4: data=0x47b9a18f wstrb=0101
# [GENERATOR] Beat 5: data=0x7c6da9f8 wstrb=0110
# [GENERATOR] Beat 6: data=0xdbcd60b7 wstrb=1011
# [GENERATOR] Beat 7: data=0xcfc4569f wstrb=0001
# [GENERATOR] Beat 8: data=0xae7d945c wstrb=0011
# [GENERATOR] Beat 9: data=0xadcbc05b wstrb=0110
# [GENERATOR] Beat 10: data=0x44de3789 wstrb=1011
# [GENERATOR] Beat 11: data=0xa4ae3249 wstrb=0111
# [GENERATOR] Beat 12: data=0xe8233ed0 wstrb=0001
# [GENERATOR] Beat 13: data=0xebfec0d7 wstrb=0100
# [GENERATOR] Stored WRITE[8]: addr=0x0000037e len=13 size=1 burst=1
# [GENERATOR] Transaction [23]: len=13 size=1 burst=1 addr=0x0000037e is_write=1
# [GENERATOR] Beat 0: data=0xa8c7fc51 wstrb=0101
# [GENERATOR] Beat 1: data=0x4b212f96 wstrb=1110
# [GENERATOR] Beat 2: data=0x061d7f0c wstrb=1001
# [GENERATOR] Beat 3: data=0xe12ccec2 wstrb=1001
# [GENERATOR] Beat 4: data=0x6457edc8 wstrb=1101
# [GENERATOR] Beat 5: data=0xbb825a77 wstrb=0101
# [GENERATOR] Beat 6: data=0x1ef2ed3d wstrb=1100
# [GENERATOR] Beat 7: data=0x090cdb12 wstrb=1110
# [GENERATOR] Beat 8: data=0xbf05007e wstrb=1101
# [GENERATOR] Beat 9: data=0x36e5816d wstrb=0010
# [GENERATOR] Beat 10: data=0x1cd9e739 wstrb=0010
# [GENERATOR] Beat 11: data=0x0fd28f1f wstrb=1100
# [GENERATOR] Stored WRITE[9]: addr=0x000002ce len=11 size=1 burst=1
# [GENERATOR] Transaction [24]: len=11 size=1 burst=1 addr=0x000002ce is_write=1
# [GENERATOR] READ selected from stored WRITE[1]
# [GENERATOR] READ: addr=0x000002a4 len=10 size=1 burst=0
# [GENERATOR] Transaction [25]: len=10 size=1 burst=0 addr=0x000002a4 is_write=0
# [GENERATOR] Beat 0: data=0xe9ebf6d3 wstrb=1000
# [GENERATOR] Beat 1: data=0x42d92f85 wstrb=0100
# [GENERATOR] Beat 2: data=0xbc148878 wstrb=1000
# [GENERATOR] Beat 3: data=0x2dda595b wstrb=1111
# [GENERATOR] Beat 4: data=0x248b4b49 wstrb=1100
# [GENERATOR] Beat 5: data=0x9ff2ae3f wstrb=1001
# [GENERATOR] Beat 6: data=0x150caf2a wstrb=1111
# [GENERATOR] Beat 7: data=0x2c156358 wstrb=1101
# [GENERATOR] Beat 8: data=0xc33f3886 wstrb=0100
# [GENERATOR] Beat 9: data=0xc71a0c8e wstrb=0100
# [GENERATOR] Beat 10: data=0xce2ff29c wstrb=0010
# [GENERATOR] Beat 11: data=0x7d3599fa wstrb=1001
# [GENERATOR] Beat 12: data=0x937dbc26 wstrb=1100
# [GENERATOR] Beat 13: data=0x39961773 wstrb=1000
# [GENERATOR] Beat 14: data=0xd18bb4a3 wstrb=1011
# [GENERATOR] Beat 15: data=0x9799a82f wstrb=1000
# [GENERATOR] Stored WRITE[10]: addr=0x00000005 len=15 size=0 burst=0
# [GENERATOR] Transaction [26]: len=15 size=0 burst=0 addr=0x00000005 is_write=1
# [GENERATOR] Beat 0: data=0xd9d292b3 wstrb=1101
# [GENERATOR] Beat 1: data=0xafd8565f wstrb=0111
# [GENERATOR] Beat 2: data=0x22290d44 wstrb=0100
# [GENERATOR] Beat 3: data=0x7bf8fdf7 wstrb=0001
# [GENERATOR] Beat 4: data=0xe59b36cb wstrb=0111
# [GENERATOR] Beat 5: data=0xf3091ae6 wstrb=1111
# [GENERATOR] Beat 6: data=0x2d28db5a wstrb=1100
# [GENERATOR] Beat 7: data=0x14cfc129 wstrb=0111
# [GENERATOR] Beat 8: data=0xf682e2ed wstrb=1010
# [GENERATOR] Beat 9: data=0xed536cda wstrb=0111
# [GENERATOR] Stored WRITE[11]: addr=0x000003b2 len=9 size=0 burst=0
# [GENERATOR] Transaction [27]: len=9 size=0 burst=0 addr=0x000003b2 is_write=1
# [GENERATOR] Beat 0: data=0xb29fb665 wstrb=1111
# [GENERATOR] Beat 1: data=0xda8ae2b5 wstrb=0101
# [GENERATOR] Beat 2: data=0xefbe94df wstrb=0011
# [GENERATOR] Beat 3: data=0x3cf11979 wstrb=1000
# [GENERATOR] Beat 4: data=0x2231ff44 wstrb=1110
# [GENERATOR] Beat 5: data=0xe8740cd0 wstrb=0110
# [GENERATOR] Beat 6: data=0x15090b2a wstrb=0110
# [GENERATOR] Beat 7: data=0x55f6adab wstrb=1000
# [GENERATOR] Beat 8: data=0x076fcf0e wstrb=1000
# [GENERATOR] Beat 9: data=0x6e5daddc wstrb=1001
# [GENERATOR] Beat 10: data=0xcd5ebc9a wstrb=1111
# [GENERATOR] Beat 11: data=0xfedf72fd wstrb=1001
# [GENERATOR] Beat 12: data=0xe1f102c3 wstrb=1010
# [GENERATOR] Stored WRITE[12]: addr=0x0000002a len=12 size=1 burst=1
# [GENERATOR] Transaction [28]: len=12 size=1 burst=1 addr=0x0000002a is_write=1
# [GENERATOR] READ selected from stored WRITE[4]
# [GENERATOR] READ: addr=0x000002b6 len=8 size=1 burst=0
# [GENERATOR] Transaction [29]: len=8 size=1 burst=0 addr=0x000002b6 is_write=0
# [GENERATOR] Beat 0: data=0x2b0eed56 wstrb=1111
# [GENERATOR] Beat 1: data=0x2779e94e wstrb=0010
# [GENERATOR] Stored WRITE[13]: addr=0x0000039d len=1 size=0 burst=0
# [GENERATOR] Transaction [30]: len=1 size=0 burst=0 addr=0x0000039d is_write=1
# [GENERATOR] Beat 0: data=0xb3d97667 wstrb=1101
# [GENERATOR] Beat 1: data=0x8531340a wstrb=1010
# [GENERATOR] Beat 2: data=0x5b6fb9b6 wstrb=1111
# [GENERATOR] Beat 3: data=0x9c0e8a38 wstrb=0111
# [GENERATOR] Beat 4: data=0x3cd18779 wstrb=0101
# [GENERATOR] Beat 5: data=0xdc2bc4b8 wstrb=1011
# [GENERATOR] Beat 6: data=0x4a74bf94 wstrb=1010
# [GENERATOR] Beat 7: data=0x49c65d93 wstrb=1111
# [GENERATOR] Stored WRITE[14]: addr=0x00000004 len=7 size=2 burst=1
# [GENERATOR] Transaction [31]: len=7 size=2 burst=1 addr=0x00000004 is_write=1
# [GENERATOR] Beat 0: data=0x823f2c04 wstrb=1100
# [GENERATOR] Beat 1: data=0xacb7ca59 wstrb=1100
# [GENERATOR] Beat 2: data=0x6dcb69db wstrb=0101
# [GENERATOR] Beat 3: data=0xa6fcde4d wstrb=1101
# [GENERATOR] Beat 4: data=0x6cb0b7d9 wstrb=0010
# [GENERATOR] Beat 5: data=0xb6a4266d wstrb=1010
# [GENERATOR] Beat 6: data=0xbb45e276 wstrb=1101
# [GENERATOR] Beat 7: data=0x653b49ca wstrb=1111
# [GENERATOR] Beat 8: data=0x5b172db6 wstrb=0110
# [GENERATOR] Stored WRITE[15]: addr=0x000000f9 len=8 size=0 burst=1
# [GENERATOR] Transaction [32]: len=8 size=0 burst=1 addr=0x000000f9 is_write=1
# [GENERATOR] READ selected from stored WRITE[1]
# [GENERATOR] READ: addr=0x000002a4 len=10 size=1 burst=0
# [GENERATOR] Transaction [33]: len=10 size=1 burst=0 addr=0x000002a4 is_write=0
# [GENERATOR] Beat 0: data=0x4a937195 wstrb=0011
# [GENERATOR] Beat 1: data=0xa3071a46 wstrb=1001
# [GENERATOR] Beat 2: data=0x02749b04 wstrb=0011
# [GENERATOR] Beat 3: data=0x7bd261f7 wstrb=1111
# [GENERATOR] Beat 4: data=0x34980769 wstrb=1100
# [GENERATOR] Beat 5: data=0xda6ebab4 wstrb=1101
# [GENERATOR] Beat 6: data=0x44018d88 wstrb=1111
# [GENERATOR] Beat 7: data=0x147cd928 wstrb=1111
# [GENERATOR] Beat 8: data=0x9690042d wstrb=1111
# [GENERATOR] Beat 9: data=0xe3c530c7 wstrb=1001
# [GENERATOR] Beat 10: data=0x975c9c2e wstrb=0001
# [GENERATOR] Beat 11: data=0x8477e408 wstrb=0110
# [GENERATOR] Stored WRITE[16]: addr=0x00000192 len=11 size=1 burst=0
# [GENERATOR] Transaction [34]: len=11 size=1 burst=0 addr=0x00000192 is_write=1
# [GENERATOR] READ selected from stored WRITE[4]
# [GENERATOR] READ: addr=0x000002b6 len=8 size=1 burst=0
# [GENERATOR] Transaction [35]: len=8 size=1 burst=0 addr=0x000002b6 is_write=0
# [GENERATOR] READ selected from stored WRITE[16]
# [GENERATOR] READ: addr=0x00000192 len=11 size=1 burst=0
# [GENERATOR] Transaction [36]: len=11 size=1 burst=0 addr=0x00000192 is_write=0
# [GENERATOR] Beat 0: data=0x0e41451c wstrb=1110
# [GENERATOR] Beat 1: data=0xfea7a6fd wstrb=1010
# [GENERATOR] Beat 2: data=0x149e0729 wstrb=1010
# [GENERATOR] Beat 3: data=0x8e37901c wstrb=1000
# [GENERATOR] Beat 4: data=0x43356786 wstrb=1011
# [GENERATOR] Beat 5: data=0xed3408da wstrb=1010
# [GENERATOR] Beat 6: data=0x9eb7c63d wstrb=1010
# [GENERATOR] Beat 7: data=0x334ea766 wstrb=1011
# [GENERATOR] Beat 8: data=0xb855c470 wstrb=0101
# [GENERATOR] Beat 9: data=0xb9f50473 wstrb=1101
# [GENERATOR] Beat 10: data=0x5d7199ba wstrb=0001
# [GENERATOR] Beat 11: data=0x2f3ab35e wstrb=0110
# [GENERATOR] Beat 12: data=0x7d4779fa wstrb=1111
# [GENERATOR] Beat 13: data=0x6a8e05d5 wstrb=1111
# [GENERATOR] Beat 14: data=0x8d24f61a wstrb=1011
# [GENERATOR] Beat 15: data=0xdcf000b9 wstrb=1000
# [GENERATOR] Stored WRITE[17]: addr=0x000003c6 len=15 size=1 burst=0
# [GENERATOR] Transaction [37]: len=15 size=1 burst=0 addr=0x000003c6 is_write=1
# [GENERATOR] Beat 0: data=0x1b876137 wstrb=1011
# [GENERATOR] Beat 1: data=0x4b273796 wstrb=1110
# [GENERATOR] Beat 2: data=0x603921c0 wstrb=1111
# [GENERATOR] Beat 3: data=0x13259f26 wstrb=0110
# [GENERATOR] Beat 4: data=0xdb461ab6 wstrb=1001
# [GENERATOR] Stored WRITE[18]: addr=0x000000c4 len=4 size=2 burst=1
# [GENERATOR] Transaction [38]: len=4 size=2 burst=1 addr=0x000000c4 is_write=1
# [GENERATOR] Beat 0: data=0x3e99837d wstrb=0111
# [GENERATOR] Beat 1: data=0x6e5f0fdc wstrb=0001
# [GENERATOR] Beat 2: data=0x43615786 wstrb=0101
# [GENERATOR] Beat 3: data=0x3c03ff78 wstrb=0100
# [GENERATOR] Beat 4: data=0x3f5a9b7e wstrb=1010
# [GENERATOR] Beat 5: data=0xed8d80db wstrb=1110
# [GENERATOR] Beat 6: data=0xe7c3b6cf wstrb=1101
# [GENERATOR] Beat 7: data=0x3ced2b79 wstrb=0100
# [GENERATOR] Beat 8: data=0xfd28e4fa wstrb=1101
# [GENERATOR] Beat 9: data=0xb0bcee61 wstrb=0001
# [GENERATOR] Beat 10: data=0x0b940917 wstrb=0011
# [GENERATOR] Beat 11: data=0xd0f578a1 wstrb=0010
# [GENERATOR] Beat 12: data=0x43779186 wstrb=0011
# [GENERATOR] Beat 13: data=0xa8639650 wstrb=0011
# [GENERATOR] Beat 14: data=0x7a8c59f5 wstrb=0010
# [GENERATOR] Stored WRITE[19]: addr=0x000002b7 len=14 size=0 burst=1
# [GENERATOR] Transaction [39]: len=14 size=0 burst=1 addr=0x000002b7 is_write=1
# [GENERATOR] Beat 0: data=0x9ab48835 wstrb=0111
# [GENERATOR] Beat 1: data=0x949a8a29 wstrb=0111
# [GENERATOR] Beat 2: data=0x60b175c1 wstrb=0011
# [GENERATOR] Beat 3: data=0xe2e574c5 wstrb=0110
# [GENERATOR] Beat 4: data=0xcc01b498 wstrb=0100
# [GENERATOR] Beat 5: data=0x25b27b4b wstrb=1101
# [GENERATOR] Beat 6: data=0xb98c4273 wstrb=1000
# [GENERATOR] Beat 7: data=0xf622e6ec wstrb=1111
# [GENERATOR] Stored WRITE[20]: addr=0x000000cb len=7 size=0 burst=0
# [GENERATOR] Transaction [40]: len=7 size=0 burst=0 addr=0x000000cb is_write=1
# [GENERATOR] Beat 0: data=0xc550168a wstrb=0101
# [GENERATOR] Beat 1: data=0x2758d14e wstrb=1000
# [GENERATOR] Beat 2: data=0xd44b80a8 wstrb=1101
# [GENERATOR] Beat 3: data=0x549efda9 wstrb=1101
# [GENERATOR] Beat 4: data=0xd0ca8ca1 wstrb=1010
# [GENERATOR] Beat 5: data=0x070bb90e wstrb=0111
# [GENERATOR] Beat 6: data=0xf33466e6 wstrb=1011
# [GENERATOR] Beat 7: data=0xcfd6c09f wstrb=1011
# [GENERATOR] Stored WRITE[21]: addr=0x0000029e len=7 size=1 burst=0
# [GENERATOR] Transaction [41]: len=7 size=1 burst=0 addr=0x0000029e is_write=1
# [GENERATOR] Beat 0: data=0x152fb52a wstrb=0101
# [GENERATOR] Beat 1: data=0x155a1d2a wstrb=0111
# [GENERATOR] Beat 2: data=0xc6b5f48d wstrb=1011
# [GENERATOR] Beat 3: data=0x4f75ff9e wstrb=1010
# [GENERATOR] Beat 4: data=0x9c6de638 wstrb=0011
# [GENERATOR] Beat 5: data=0xbccfa879 wstrb=1010
# [GENERATOR] Beat 6: data=0x6464e3c8 wstrb=1100
# [GENERATOR] Beat 7: data=0x652345ca wstrb=0110
# [GENERATOR] Stored WRITE[22]: addr=0x0000028d len=7 size=0 burst=1
# [GENERATOR] Transaction [42]: len=7 size=0 burst=1 addr=0x0000028d is_write=1
# [GENERATOR] Beat 0: data=0x09ff4113 wstrb=1010
# [GENERATOR] Beat 1: data=0x35a0c96b wstrb=0011
# [GENERATOR] Beat 2: data=0xe3b7aec7 wstrb=0111
# [GENERATOR] Beat 3: data=0x5b0bddb6 wstrb=1010
# [GENERATOR] Beat 4: data=0x5d059dba wstrb=1010
# [GENERATOR] Beat 5: data=0x6216abc4 wstrb=1010
# [GENERATOR] Beat 6: data=0x5c8295b9 wstrb=0110
# [GENERATOR] Beat 7: data=0x492fd392 wstrb=1100
# [GENERATOR] Beat 8: data=0xda269ab4 wstrb=0010
# [GENERATOR] Beat 9: data=0x3fbb3b7f wstrb=0101
# [GENERATOR] Beat 10: data=0xc3339086 wstrb=0100
# [GENERATOR] Beat 11: data=0x7d6df5fa wstrb=0100
# [GENERATOR] Beat 12: data=0xf92794f2 wstrb=0011
# [GENERATOR] Beat 13: data=0x19452132 wstrb=1110
# [GENERATOR] Beat 14: data=0xdece5ebd wstrb=1111
# [GENERATOR] Beat 15: data=0x424fcd84 wstrb=1011
# [GENERATOR] Stored WRITE[23]: addr=0x000001c4 len=15 size=2 burst=1
# [GENERATOR] Transaction [43]: len=15 size=2 burst=1 addr=0x000001c4 is_write=1
# [GENERATOR] READ selected from stored WRITE[6]
# [GENERATOR] READ: addr=0x000002ec len=10 size=1 burst=0
# [GENERATOR] Transaction [44]: len=10 size=1 burst=0 addr=0x000002ec is_write=0
# [GENERATOR] READ selected from stored WRITE[18]
# [GENERATOR] READ: addr=0x000000c4 len=4 size=2 burst=1
# [GENERATOR] Transaction [45]: len=4 size=2 burst=1 addr=0x000000c4 is_write=0
# [GENERATOR] READ selected from stored WRITE[21]
# [GENERATOR] READ: addr=0x0000029e len=7 size=1 burst=0
# [GENERATOR] Transaction [46]: len=7 size=1 burst=0 addr=0x0000029e is_write=0
# [GENERATOR] Beat 0: data=0xf249a4e4 wstrb=1011
# [GENERATOR] Beat 1: data=0x6543cfca wstrb=1100
# [GENERATOR] Beat 2: data=0x54a879a9 wstrb=0011
# [GENERATOR] Beat 3: data=0xd095a8a1 wstrb=0100
# [GENERATOR] Beat 4: data=0x4765a98e wstrb=0010
# [GENERATOR] Beat 5: data=0xfd8b6afb wstrb=0110
# [GENERATOR] Beat 6: data=0x85e51e0b wstrb=1001
# [GENERATOR] Beat 7: data=0xf78290ef wstrb=0111
# [GENERATOR] Beat 8: data=0x64c83dc9 wstrb=1001
# [GENERATOR] Beat 9: data=0x1b60e536 wstrb=0001
# [GENERATOR] Beat 10: data=0xbab14875 wstrb=0010
# [GENERATOR] Beat 11: data=0xc7e8568f wstrb=1100
# [GENERATOR] Beat 12: data=0x35cdbf6b wstrb=0110
# [GENERATOR] Beat 13: data=0x4465e788 wstrb=1000
# [GENERATOR] Beat 14: data=0xd73fb4ae wstrb=1011
# [GENERATOR] Stored WRITE[24]: addr=0x00000302 len=14 size=1 burst=1
# [GENERATOR] Transaction [47]: len=14 size=1 burst=1 addr=0x00000302 is_write=1
# [GENERATOR] READ selected from stored WRITE[14]
# [GENERATOR] READ: addr=0x00000004 len=7 size=2 burst=1
# [GENERATOR] Transaction [48]: len=7 size=2 burst=1 addr=0x00000004 is_write=0
# [GENERATOR] Beat 0: data=0x4df3819b wstrb=0111
# [GENERATOR] Beat 1: data=0x493e4592 wstrb=1010
# [GENERATOR] Beat 2: data=0x1444df28 wstrb=1011
# [GENERATOR] Beat 3: data=0x9684e02d wstrb=1000
# [GENERATOR] Beat 4: data=0x25b75f4b wstrb=0110
# [GENERATOR] Beat 5: data=0xe169b0c2 wstrb=0001
# [GENERATOR] Stored WRITE[25]: addr=0x0000013c len=5 size=0 burst=1
# [GENERATOR] Transaction [49]: len=5 size=0 burst=1 addr=0x0000013c is_write=1
# [GENERATOR] READ selected from stored WRITE[6]
# [GENERATOR] READ: addr=0x000002ec len=10 size=1 burst=0
# [GENERATOR] Transaction [50]: len=10 size=1 burst=0 addr=0x000002ec is_write=0
# [GENERATOR] All 50 transactions generated successfully
# [DRIVER] Starting transaction 1 (is_write=1)
# [MONITOR] watch_write() CALL #1 starting, time=95
# [WRITE_SLAVE] Write burst accepted: addr=0x000000d0, len=11, size=1
# [MONITOR] Write: addr=0x000000d0, len=11, size=1, burst=1
# [WRITE_SLAVE]   Beat: addr=0x000000d0, data=0x12153524, wlast=0
# [WRITE_SLAVE]   Beat: addr=0x000000d2, data=0xc0895e81, wlast=0
# [WRITE_SLAVE]   Beat: addr=0x000000d4, data=0x8484d609, wlast=0
# [MONITOR] Read: addr=0xxxxxxxxx, len=0, size=x, burst=x
# [WRITE_SLAVE]   Beat: addr=0x000000d6, data=0xb1f05663, wlast=0
# [WRITE_SLAVE]   Beat: addr=0x000000d8, data=0x06b97b0d, wlast=0
# [WRITE_SLAVE]   Beat: addr=0x000000da, data=0x46df998d, wlast=0
# [WRITE_SLAVE]   Beat: addr=0x000000dc, data=0xb2c28465, wlast=0
# [WRITE_SLAVE]   Beat: addr=0x000000de, data=0x89375212, wlast=0
# [WRITE_SLAVE]   Beat: addr=0x000000e0, data=0x00f3e301, wlast=0
# [WRITE_SLAVE]   Beat: addr=0x000000e2, data=0x06d7cd0d, wlast=0
# [WRITE_SLAVE]   Beat: addr=0x000000e4, data=0x3b23f176, wlast=0
# [WRITE_SLAVE]   Beat: addr=0x000000e6, data=0x1e8dcd3d, wlast=1
# [WRITE_SLAVE] Write burst complete, sending response
# [WRITE_SLAVE] Response acknowledged, ready for next burst
# 
# [MONITOR] Write: Captured WLAST at beat 11 (len=11)
# [DRIVER] Write response captured: bresp=0
# [MONITOR] About to m2.put() write txn: addr=0x000000d0, id=7, time=265
# [MONITOR] watch_write() CALL #2 starting, time=265
# [SCOREBOARD] Write: addr=0x000000d0, len=11, size=1 (bytes_per_beat=2)
# [SCOREBOARD]   Beat 0: addr=0x000000d0 -> mem[52] = 0x00153524
# [SCOREBOARD]   Beat 1: addr=0x000000d2 -> mem[52] = 0x00153581
# [SCOREBOARD]   Beat 2: addr=0x000000d4 -> mem[53] = 0x00840009
# [SCOREBOARD]   Beat 3: addr=0x000000d6 -> mem[53] = 0x00845663
# [SCOREBOARD]   Beat 4: addr=0x000000d8 -> mem[54] = 0x00b97b0d
# [SCOREBOARD]   Beat 5: addr=0x000000da -> mem[54] = 0x46df998d
# [SCOREBOARD]   Beat 6: addr=0x000000dc -> mem[55] = 0x00c28400
# [SCOREBOARD]   Beat 7: addr=0x000000de -> mem[55] = 0x00c25200
# [SCOREBOARD]   Beat 8: addr=0x000000e0 -> mem[56] = 0x00f30001
# [SCOREBOARD]   Beat 9: addr=0x000000e2 -> mem[56] = 0x00d70001
# [SCOREBOARD]   Beat 10: addr=0x000000e4 -> mem[57] = 0x3b230076
# [SCOREBOARD]   Beat 11: addr=0x000000e6 -> mem[57] = 0x3b23003d
# [SCOREBOARD] Write response observed: bresp=0
# [DRIVER] Starting transaction 2 (is_write=0)
# [READ_SLAVE] Read burst accepted: addr=0x000000d0, len=11, size=1
# [READ_SLAVE] Beat 1: addr=0x000000d2
# [DRIVER] Read beat 0: data=0x00003581 rresp=0 rid=15
# [MONITOR] Read: Beat 0: data=0x00003581, resp=0, rlast=0
# [READ_SLAVE] Beat 2: addr=0x000000d4
# [DRIVER] Read beat 1: data=0x00150000 rresp=0 rid=15
# ** Warning: [SCOREBOARD] Skipping malformed transaction (addr=X) - known rare monitor glitch
#    Time: 295 ns  Scope: axi4_testbench_top_sv_unit.axi4_scoreboard.run File: axi4_scoreboard.sv Line: 61
# ** Warning: [COVERAGE] Skipping malformed transaction - known rare monitor glitch
#    Time: 295 ns  Scope: axi4_testbench_top_sv_unit.axi4_coverages.run File: axi4_coverages.sv Line: 142
# [READ_SLAVE] Beat 3: addr=0x000000d6
# [DRIVER] Read beat 2: data=0x00005663 rresp=0 rid=15
# [READ_SLAVE] Beat 4: addr=0x000000d8
# [DRIVER] Read beat 3: data=0x00840000 rresp=0 rid=15
# [READ_SLAVE] Beat 5: addr=0x000000da
# [DRIVER] Read beat 4: data=0x0000998d rresp=0 rid=15
# [READ_SLAVE] Beat 6: addr=0x000000dc
# [DRIVER] Read beat 5: data=0x46df0000 rresp=0 rid=15
# [READ_SLAVE] Beat 7: addr=0x000000de
# [DRIVER] Read beat 6: data=0x00005200 rresp=0 rid=15
# [READ_SLAVE] Beat 8: addr=0x000000e0
# [DRIVER] Read beat 7: data=0x00c20000 rresp=0 rid=15
# [READ_SLAVE] Beat 9: addr=0x000000e2
# [DRIVER] Read beat 8: data=0x00000001 rresp=0 rid=15
# [READ_SLAVE] Beat 10: addr=0x000000e4
# [DRIVER] Read beat 9: data=0x00d70000 rresp=0 rid=15
# [READ_SLAVE] Beat 11: addr=0x000000e6
# [DRIVER] Read beat 10: data=0x0000003d rresp=0 rid=15
# [READ_SLAVE] Read burst complete (beats transferred: 12)
# [DRIVER] Read beat 11: data=0x3b230000 rresp=0 rid=15
# [DRIVER] Starting transaction 3 (is_write=1)
# [WRITE_SLAVE] Write burst accepted: addr=0x000002a4, len=10, size=1
# [MONITOR] Write: addr=0x000002a4, len=10, size=1, burst=0
# [WRITE_SLAVE]   Beat: addr=0x000002a4, data=0x76d457ed, wlast=0
# [WRITE_SLAVE]   Beat: addr=0x000002a4, data=0x462df78c, wlast=0
# [WRITE_SLAVE]   Beat: addr=0x000002a4, data=0x7cfde9f9, wlast=0
# [WRITE_SLAVE]   Beat: addr=0x000002a4, data=0xe33724c6, wlast=0
# [WRITE_SLAVE]   Beat: addr=0x000002a4, data=0xe2f784c5, wlast=0
# [WRITE_SLAVE]   Beat: addr=0x000002a4, data=0xd513d2aa, wlast=0
# [WRITE_SLAVE]   Beat: addr=0x000002a4, data=0x72aff7e5, wlast=0
# [WRITE_SLAVE]   Beat: addr=0x000002a4, data=0xbbd27277, wlast=0
# [WRITE_SLAVE]   Beat: addr=0x000002a4, data=0x8932d612, wlast=0
# [WRITE_SLAVE]   Beat: addr=0x000002a4, data=0x47ecdb8f, wlast=0
# [WRITE_SLAVE]   Beat: addr=0x000002a4, data=0x793069f2, wlast=1
# [WRITE_SLAVE] Write burst complete, sending response
# [WRITE_SLAVE] Response acknowledged, ready for next burst
# 
# [MONITOR] Write: Captured WLAST at beat 10 (len=10)
# [DRIVER] Write response captured: bresp=0
# [MONITOR] About to m2.put() write txn: addr=0x000002a4, id=9, time=555
# [MONITOR] watch_write() CALL #3 starting, time=555
# [SCOREBOARD] Write: addr=0x000002a4, len=10, size=1 (bytes_per_beat=2)
# [SCOREBOARD]   Beat 0: addr=0x000002a4 -> mem[169] = 0x76d400ed
# [SCOREBOARD]   Beat 1: addr=0x000002a4 -> mem[169] = 0x76d4f7ed
# [SCOREBOARD]   Beat 2: addr=0x000002a4 -> mem[169] = 0x76fdf7f9
# [SCOREBOARD]   Beat 3: addr=0x000002a4 -> mem[169] = 0xe3fdf7c6
# [SCOREBOARD]   Beat 4: addr=0x000002a4 -> mem[169] = 0xe2fdf7c5
# [SCOREBOARD]   Beat 5: addr=0x000002a4 -> mem[169] = 0xe213d2c5
# [SCOREBOARD]   Beat 6: addr=0x000002a4 -> mem[169] = 0x7213f7e5
# [SCOREBOARD]   Beat 7: addr=0x000002a4 -> mem[169] = 0xbbd272e5
# [SCOREBOARD]   Beat 8: addr=0x000002a4 -> mem[169] = 0x89d2d6e5
# [SCOREBOARD]   Beat 9: addr=0x000002a4 -> mem[169] = 0x47d2d68f
# [SCOREBOARD]   Beat 10: addr=0x000002a4 -> mem[169] = 0x4730d68f
# [SCOREBOARD] Write response observed: bresp=0
# [DRIVER] Starting transaction 4 (is_write=1)
# [WRITE_SLAVE] Write burst accepted: addr=0x000003f2, len=4, size=1
# [MONITOR] Write: addr=0x000003f2, len=4, size=1, burst=1
# [WRITE_SLAVE]   Beat: addr=0x000003f2, data=0xe77696ce, wlast=0
# [WRITE_SLAVE]   Beat: addr=0x000003f4, data=0xf4007ae8, wlast=0
# [WRITE_SLAVE]   Beat: addr=0x000003f6, data=0xe2ca4ec5, wlast=0
# [WRITE_SLAVE]   Beat: addr=0x000003f8, data=0x2e58495c, wlast=0
# [WRITE_SLAVE]   Beat: addr=0x000003fa, data=0xde8e28bd, wlast=1
# [WRITE_SLAVE] Write burst complete, sending response
# [WRITE_SLAVE] Response acknowledged, ready for next burst
# 
# [MONITOR] Write: Captured WLAST at beat 4 (len=4)
# [DRIVER] Write response captured: bresp=0
# [MONITOR] About to m2.put() write txn: addr=0x000003f2, id=11, time=645
# [MONITOR] watch_write() CALL #4 starting, time=645
# [SCOREBOARD] Write: addr=0x000003f2, len=4, size=1 (bytes_per_beat=2)
# [SCOREBOARD]   Beat 0: addr=0x000003f2 -> mem[252] = 0xe70096ce
# [SCOREBOARD]   Beat 1: addr=0x000003f4 -> mem[253] = 0x00007a00
# [SCOREBOARD]   Beat 2: addr=0x000003f6 -> mem[253] = 0xe2004ec5
# [SCOREBOARD]   Beat 3: addr=0x000003f8 -> mem[254] = 0x2e00495c
# [SCOREBOARD]   Beat 4: addr=0x000003fa -> mem[254] = 0xde0028bd
# [SCOREBOARD] Write response observed: bresp=0
# [DRIVER] Starting transaction 5 (is_write=0)
# [READ_SLAVE] Read burst accepted: addr=0x000003f2, len=4, size=1
# [MONITOR] Read: addr=0x000003f2, len=4, size=1, burst=1
# [READ_SLAVE] Beat 1: addr=0x000003f4
# [DRIVER] Read beat 0: data=0xe7000000 rresp=0 rid=3
# [MONITOR] Read: Beat 0: data=0xe7000000, resp=0, rlast=0
# [READ_SLAVE] Beat 2: addr=0x000003f6
# [DRIVER] Read beat 1: data=0x00004ec5 rresp=0 rid=3
# [MONITOR] Read: Beat 1: data=0x00004ec5, resp=0, rlast=0
# [READ_SLAVE] Beat 3: addr=0x000003f8
# [DRIVER] Read beat 2: data=0xe2000000 rresp=0 rid=3
# [MONITOR] Read: Beat 2: data=0xe2000000, resp=0, rlast=0
# [READ_SLAVE] Beat 4: addr=0x000003fa
# [DRIVER] Read beat 3: data=0x000028bd rresp=0 rid=3
# [MONITOR] Read: Beat 3: data=0x000028bd, resp=0, rlast=0
# [READ_SLAVE] Read burst complete (beats transferred: 5)
# [DRIVER] Read beat 4: data=0xde000000 rresp=0 rid=3
# [MONITOR] Read: Beat 4: data=0xde000000, resp=0, rlast=1
# [MONITOR] Read: Captured RLAST at beat 4 (expected len=4)
# [DRIVER] Starting transaction 6 (is_write=1)
# [SCOREBOARD] Read Check: addr=0x000003f2, len=4, size=1
# [SCOREBOARD] READ PASS: Beat 0: addr=0x000003f2 (mem[252]), expected=0xe7000000 actual=0xe7000000
# [SCOREBOARD] READ PASS: Beat 1: addr=0x000003f4 (mem[253]), expected=0x00004ec5 actual=0x00004ec5
# [SCOREBOARD] READ PASS: Beat 2: addr=0x000003f6 (mem[253]), expected=0xe2000000 actual=0xe2000000
# [SCOREBOARD] READ PASS: Beat 3: addr=0x000003f8 (mem[254]), expected=0x000028bd actual=0x000028bd
# [SCOREBOARD] READ PASS: Beat 4: addr=0x000003fa (mem[254]), expected=0xde000000 actual=0xde000000
# [WRITE_SLAVE] Write burst accepted: addr=0x0000029e, len=7, size=0
# [MONITOR] Write: addr=0x0000029e, len=7, size=0, burst=0
# [WRITE_SLAVE]   Beat: addr=0x0000029e, data=0x96ab582d, wlast=0
# [WRITE_SLAVE]   Beat: addr=0x0000029e, data=0xb2a72665, wlast=0
# [WRITE_SLAVE]   Beat: addr=0x0000029e, data=0xb1ef6263, wlast=0
# [WRITE_SLAVE]   Beat: addr=0x0000029e, data=0x0573870a, wlast=0
# [WRITE_SLAVE]   Beat: addr=0x0000029e, data=0xc03b2280, wlast=0
# [WRITE_SLAVE]   Beat: addr=0x0000029e, data=0x10642120, wlast=0
# [WRITE_SLAVE]   Beat: addr=0x0000029e, data=0x557845aa, wlast=0
# [WRITE_SLAVE]   Beat: addr=0x0000029e, data=0xcecccc9d, wlast=1
# [WRITE_SLAVE] Write burst complete, sending response
# [WRITE_SLAVE] Response acknowledged, ready for next burst
# 
# [MONITOR] Write: Captured WLAST at beat 7 (len=7)
# [DRIVER] Write response captured: bresp=0
# [MONITOR] About to m2.put() write txn: addr=0x0000029e, id=12, time=835
# [MONITOR] watch_write() CALL #5 starting, time=835
# [SCOREBOARD] Write: addr=0x0000029e, len=7, size=0 (bytes_per_beat=1)
# [SCOREBOARD]   Beat 0: addr=0x0000029e -> mem[167] = 0x9600582d
# [SCOREBOARD]   Beat 1: addr=0x0000029e -> mem[167] = 0xb200582d
# [SCOREBOARD]   Beat 2: addr=0x0000029e -> mem[167] = 0xb1ef5863
# [SCOREBOARD]   Beat 3: addr=0x0000029e -> mem[167] = 0x0573870a
# [SCOREBOARD]   Beat 4: addr=0x0000029e -> mem[167] = 0x053b8780
# [SCOREBOARD]   Beat 5: addr=0x0000029e -> mem[167] = 0x103b8780
# [SCOREBOARD]   Beat 6: addr=0x0000029e -> mem[167] = 0x553b8780
# [SCOREBOARD]   Beat 7: addr=0x0000029e -> mem[167] = 0xcecc8780
# [SCOREBOARD] Write response observed: bresp=0
# [DRIVER] Starting transaction 7 (is_write=0)
# [READ_SLAVE] Read burst accepted: addr=0x0000029e, len=7, size=0
# [MONITOR] Read: addr=0x0000029e, len=7, size=0, burst=0
# [READ_SLAVE] Beat 1: addr=0x0000029e
# [DRIVER] Read beat 0: data=0x00cc0000 rresp=0 rid=5
# [MONITOR] Read: Beat 0: data=0x00cc0000, resp=0, rlast=0
# [READ_SLAVE] Beat 2: addr=0x0000029e
# [DRIVER] Read beat 1: data=0x00cc0000 rresp=0 rid=5
# [MONITOR] Read: Beat 1: data=0x00cc0000, resp=0, rlast=0
# [READ_SLAVE] Beat 3: addr=0x0000029e
# [DRIVER] Read beat 2: data=0x00cc0000 rresp=0 rid=5
# [MONITOR] Read: Beat 2: data=0x00cc0000, resp=0, rlast=0
# [READ_SLAVE] Beat 4: addr=0x0000029e
# [DRIVER] Read beat 3: data=0x00cc0000 rresp=0 rid=5
# [MONITOR] Read: Beat 3: data=0x00cc0000, resp=0, rlast=0
# [READ_SLAVE] Beat 5: addr=0x0000029e
# [DRIVER] Read beat 4: data=0x00cc0000 rresp=0 rid=5
# [MONITOR] Read: Beat 4: data=0x00cc0000, resp=0, rlast=0
# [READ_SLAVE] Beat 6: addr=0x0000029e
# [DRIVER] Read beat 5: data=0x00cc0000 rresp=0 rid=5
# [MONITOR] Read: Beat 5: data=0x00cc0000, resp=0, rlast=0
# [READ_SLAVE] Beat 7: addr=0x0000029e
# [DRIVER] Read beat 6: data=0x00cc0000 rresp=0 rid=5
# [MONITOR] Read: Beat 6: data=0x00cc0000, resp=0, rlast=0
# [READ_SLAVE] Read burst complete (beats transferred: 8)
# [DRIVER] Read beat 7: data=0x00cc0000 rresp=0 rid=5
# [MONITOR] Read: Beat 7: data=0x00cc0000, resp=0, rlast=1
# [MONITOR] Read: Captured RLAST at beat 7 (expected len=7)
# [DRIVER] Starting transaction 8 (is_write=0)
# [SCOREBOARD] Read Check: addr=0x0000029e, len=7, size=0
# [SCOREBOARD] READ PASS: Beat 0: addr=0x0000029e (mem[167]), expected=0x00cc0000 actual=0x00cc0000
# [SCOREBOARD] READ PASS: Beat 1: addr=0x0000029e (mem[167]), expected=0x00cc0000 actual=0x00cc0000
# [SCOREBOARD] READ PASS: Beat 2: addr=0x0000029e (mem[167]), expected=0x00cc0000 actual=0x00cc0000
# [SCOREBOARD] READ PASS: Beat 3: addr=0x0000029e (mem[167]), expected=0x00cc0000 actual=0x00cc0000
# [SCOREBOARD] READ PASS: Beat 4: addr=0x0000029e (mem[167]), expected=0x00cc0000 actual=0x00cc0000
# [SCOREBOARD] READ PASS: Beat 5: addr=0x0000029e (mem[167]), expected=0x00cc0000 actual=0x00cc0000
# [SCOREBOARD] READ PASS: Beat 6: addr=0x0000029e (mem[167]), expected=0x00cc0000 actual=0x00cc0000
# [SCOREBOARD] READ PASS: Beat 7: addr=0x0000029e (mem[167]), expected=0x00cc0000 actual=0x00cc0000
# [READ_SLAVE] Read burst accepted: addr=0x000003f2, len=4, size=1
# [MONITOR] Read: addr=0x000003f2, len=4, size=1, burst=1
# [READ_SLAVE] Beat 1: addr=0x000003f4
# [DRIVER] Read beat 0: data=0xe7000000 rresp=0 rid=4
# [MONITOR] Read: Beat 0: data=0xe7000000, resp=0, rlast=0
# [READ_SLAVE] Beat 2: addr=0x000003f6
# [DRIVER] Read beat 1: data=0x00004ec5 rresp=0 rid=4
# [MONITOR] Read: Beat 1: data=0x00004ec5, resp=0, rlast=0
# [READ_SLAVE] Beat 3: addr=0x000003f8
# [DRIVER] Read beat 2: data=0xe2000000 rresp=0 rid=4
# [MONITOR] Read: Beat 2: data=0xe2000000, resp=0, rlast=0
# [READ_SLAVE] Beat 4: addr=0x000003fa
# [DRIVER] Read beat 3: data=0x000028bd rresp=0 rid=4
# [MONITOR] Read: Beat 3: data=0x000028bd, resp=0, rlast=0
# [READ_SLAVE] Read burst complete (beats transferred: 5)
# [DRIVER] Read beat 4: data=0xde000000 rresp=0 rid=4
# [MONITOR] Read: Beat 4: data=0xde000000, resp=0, rlast=1
# [MONITOR] Read: Captured RLAST at beat 4 (expected len=4)
# [DRIVER] Starting transaction 9 (is_write=0)
# [SCOREBOARD] Read Check: addr=0x000003f2, len=4, size=1
# [SCOREBOARD] READ PASS: Beat 0: addr=0x000003f2 (mem[252]), expected=0xe7000000 actual=0xe7000000
# [SCOREBOARD] READ PASS: Beat 1: addr=0x000003f4 (mem[253]), expected=0x00004ec5 actual=0x00004ec5
# [SCOREBOARD] READ PASS: Beat 2: addr=0x000003f6 (mem[253]), expected=0xe2000000 actual=0xe2000000
# [SCOREBOARD] READ PASS: Beat 3: addr=0x000003f8 (mem[254]), expected=0x000028bd actual=0x000028bd
# [SCOREBOARD] READ PASS: Beat 4: addr=0x000003fa (mem[254]), expected=0xde000000 actual=0xde000000
# [READ_SLAVE] Read burst accepted: addr=0x000002a4, len=10, size=1
# [MONITOR] Read: addr=0x000002a4, len=10, size=1, burst=0
# [READ_SLAVE] Beat 1: addr=0x000002a4
# [DRIVER] Read beat 0: data=0x0000d68f rresp=0 rid=14
# [MONITOR] Read: Beat 0: data=0x0000d68f, resp=0, rlast=0
# [READ_SLAVE] Beat 2: addr=0x000002a4
# [DRIVER] Read beat 1: data=0x0000d68f rresp=0 rid=14
# [MONITOR] Read: Beat 1: data=0x0000d68f, resp=0, rlast=0
# [READ_SLAVE] Beat 3: addr=0x000002a4
# [DRIVER] Read beat 2: data=0x0000d68f rresp=0 rid=14
# [MONITOR] Read: Beat 2: data=0x0000d68f, resp=0, rlast=0
# [READ_SLAVE] Beat 4: addr=0x000002a4
# [DRIVER] Read beat 3: data=0x0000d68f rresp=0 rid=14
# [MONITOR] Read: Beat 3: data=0x0000d68f, resp=0, rlast=0
# [READ_SLAVE] Beat 5: addr=0x000002a4
# [DRIVER] Read beat 4: data=0x0000d68f rresp=0 rid=14
# [MONITOR] Read: Beat 4: data=0x0000d68f, resp=0, rlast=0
# [READ_SLAVE] Beat 6: addr=0x000002a4
# [DRIVER] Read beat 5: data=0x0000d68f rresp=0 rid=14
# [MONITOR] Read: Beat 5: data=0x0000d68f, resp=0, rlast=0
# [READ_SLAVE] Beat 7: addr=0x000002a4
# [DRIVER] Read beat 6: data=0x0000d68f rresp=0 rid=14
# [MONITOR] Read: Beat 6: data=0x0000d68f, resp=0, rlast=0
# [READ_SLAVE] Beat 8: addr=0x000002a4
# [DRIVER] Read beat 7: data=0x0000d68f rresp=0 rid=14
# [MONITOR] Read: Beat 7: data=0x0000d68f, resp=0, rlast=0
# [READ_SLAVE] Beat 9: addr=0x000002a4
# [DRIVER] Read beat 8: data=0x0000d68f rresp=0 rid=14
# [MONITOR] Read: Beat 8: data=0x0000d68f, resp=0, rlast=0
# [READ_SLAVE] Beat 10: addr=0x000002a4
# [DRIVER] Read beat 9: data=0x0000d68f rresp=0 rid=14
# [MONITOR] Read: Beat 9: data=0x0000d68f, resp=0, rlast=0
# [READ_SLAVE] Read burst complete (beats transferred: 11)
# [DRIVER] Read beat 10: data=0x0000d68f rresp=0 rid=14
# [MONITOR] Read: Beat 10: data=0x0000d68f, resp=0, rlast=1
# [MONITOR] Read: Captured RLAST at beat 10 (expected len=10)
# [DRIVER] Starting transaction 10 (is_write=1)
# [SCOREBOARD] Read Check: addr=0x000002a4, len=10, size=1
# [SCOREBOARD] READ PASS: Beat 0: addr=0x000002a4 (mem[169]), expected=0x0000d68f actual=0x0000d68f
# [SCOREBOARD] READ PASS: Beat 1: addr=0x000002a4 (mem[169]), expected=0x0000d68f actual=0x0000d68f
# [SCOREBOARD] READ PASS: Beat 2: addr=0x000002a4 (mem[169]), expected=0x0000d68f actual=0x0000d68f
# [SCOREBOARD] READ PASS: Beat 3: addr=0x000002a4 (mem[169]), expected=0x0000d68f actual=0x0000d68f
# [SCOREBOARD] READ PASS: Beat 4: addr=0x000002a4 (mem[169]), expected=0x0000d68f actual=0x0000d68f
# [SCOREBOARD] READ PASS: Beat 5: addr=0x000002a4 (mem[169]), expected=0x0000d68f actual=0x0000d68f
# [SCOREBOARD] READ PASS: Beat 6: addr=0x000002a4 (mem[169]), expected=0x0000d68f actual=0x0000d68f
# [SCOREBOARD] READ PASS: Beat 7: addr=0x000002a4 (mem[169]), expected=0x0000d68f actual=0x0000d68f
# [SCOREBOARD] READ PASS: Beat 8: addr=0x000002a4 (mem[169]), expected=0x0000d68f actual=0x0000d68f
# [SCOREBOARD] READ PASS: Beat 9: addr=0x000002a4 (mem[169]), expected=0x0000d68f actual=0x0000d68f
# [SCOREBOARD] READ PASS: Beat 10: addr=0x000002a4 (mem[169]), expected=0x0000d68f actual=0x0000d68f
# [WRITE_SLAVE] Write burst accepted: addr=0x000002b6, len=8, size=1
# [MONITOR] Write: addr=0x000002b6, len=8, size=1, burst=0
# [WRITE_SLAVE]   Beat: addr=0x000002b6, data=0xcb203e96, wlast=0
# [WRITE_SLAVE]   Beat: addr=0x000002b6, data=0x8983b813, wlast=0
# [WRITE_SLAVE]   Beat: addr=0x000002b6, data=0x86bc380d, wlast=0
# [WRITE_SLAVE]   Beat: addr=0x000002b6, data=0xa9a7d653, wlast=0
# [WRITE_SLAVE]   Beat: addr=0x000002b6, data=0x359fdd6b, wlast=0
# [WRITE_SLAVE]   Beat: addr=0x000002b6, data=0xeaa62ad5, wlast=0
# [WRITE_SLAVE]   Beat: addr=0x000002b6, data=0x81174a02, wlast=0
# [WRITE_SLAVE]   Beat: addr=0x000002b6, data=0xd7563eae, wlast=0
# [WRITE_SLAVE]   Beat: addr=0x000002b6, data=0x0effe91d, wlast=1
# [WRITE_SLAVE] Write burst complete, sending response
# [WRITE_SLAVE] Response acknowledged, ready for next burst
# 
# [MONITOR] Write: Captured WLAST at beat 8 (len=8)
# [DRIVER] Write response captured: bresp=0
# [MONITOR] About to m2.put() write txn: addr=0x000002b6, id=12, time=1265
# [MONITOR] watch_write() CALL #6 starting, time=1265
# [SCOREBOARD] Write: addr=0x000002b6, len=8, size=1 (bytes_per_beat=2)
# [SCOREBOARD]   Beat 0: addr=0x000002b6 -> mem[173] = 0xcb200000
# [SCOREBOARD]   Beat 1: addr=0x000002b6 -> mem[173] = 0xcb20b800
# [SCOREBOARD]   Beat 2: addr=0x000002b6 -> mem[173] = 0x86bc3800
# [SCOREBOARD]   Beat 3: addr=0x000002b6 -> mem[173] = 0x86bcd600
# [SCOREBOARD]   Beat 4: addr=0x000002b6 -> mem[173] = 0x35bcd66b
# [SCOREBOARD]   Beat 5: addr=0x000002b6 -> mem[173] = 0x35bc2a6b
# [SCOREBOARD]   Beat 6: addr=0x000002b6 -> mem[173] = 0x35174a02
# [SCOREBOARD]   Beat 7: addr=0x000002b6 -> mem[173] = 0x35173e02
# [SCOREBOARD]   Beat 8: addr=0x000002b6 -> mem[173] = 0x35ffe902
# [SCOREBOARD] Write response observed: bresp=0
# [DRIVER] Starting transaction 11 (is_write=1)
# [WRITE_SLAVE] Write burst accepted: addr=0x000003ac, len=5, size=1
# [MONITOR] Write: addr=0x000003ac, len=5, size=1, burst=0
# [WRITE_SLAVE]   Beat: addr=0x000003ac, data=0xe7c572cf, wlast=0
# [WRITE_SLAVE]   Beat: addr=0x000003ac, data=0x11844923, wlast=0
# [WRITE_SLAVE]   Beat: addr=0x000003ac, data=0x0509650a, wlast=0
# [WRITE_SLAVE]   Beat: addr=0x000003ac, data=0xe5730aca, wlast=0
# [WRITE_SLAVE]   Beat: addr=0x000003ac, data=0x9e314c3c, wlast=0
# [WRITE_SLAVE]   Beat: addr=0x000003ac, data=0x7968bdf2, wlast=1
# [WRITE_SLAVE] Write burst complete, sending response
# [WRITE_SLAVE] Response acknowledged, ready for next burst
# 
# [MONITOR] Write: Captured WLAST at beat 5 (len=5)
# [DRIVER] Write response captured: bresp=0
# [MONITOR] About to m2.put() write txn: addr=0x000003ac, id=15, time=1365
# [MONITOR] watch_write() CALL #7 starting, time=1365
# [SCOREBOARD] Write: addr=0x000003ac, len=5, size=1 (bytes_per_beat=2)
# [SCOREBOARD]   Beat 0: addr=0x000003ac -> mem[235] = 0xe7c50000
# [SCOREBOARD]   Beat 1: addr=0x000003ac -> mem[235] = 0xe7840000
# [SCOREBOARD]   Beat 2: addr=0x000003ac -> mem[235] = 0xe709650a
# [SCOREBOARD]   Beat 3: addr=0x000003ac -> mem[235] = 0xe7090aca
# [SCOREBOARD]   Beat 4: addr=0x000003ac -> mem[235] = 0xe7094cca
# [SCOREBOARD]   Beat 5: addr=0x000003ac -> mem[235] = 0x7968bdca
# [SCOREBOARD] Write response observed: bresp=0
# [DRIVER] Starting transaction 12 (is_write=1)
# [WRITE_SLAVE] Write burst accepted: addr=0x000002ec, len=10, size=1
# [MONITOR] Write: addr=0x000002ec, len=10, size=1, burst=0
# [WRITE_SLAVE]   Beat: addr=0x000002ec, data=0x452e618a, wlast=0
# [WRITE_SLAVE]   Beat: addr=0x000002ec, data=0x20c4b341, wlast=0
# [WRITE_SLAVE]   Beat: addr=0x000002ec, data=0xec4b34d8, wlast=0
# [WRITE_SLAVE]   Beat: addr=0x000002ec, data=0x3c20f378, wlast=0
# [WRITE_SLAVE]   Beat: addr=0x000002ec, data=0xc48a1289, wlast=0
# [WRITE_SLAVE]   Beat: addr=0x000002ec, data=0x75c50deb, wlast=0
# [WRITE_SLAVE]   Beat: addr=0x000002ec, data=0x5b0265b6, wlast=0
# [WRITE_SLAVE]   Beat: addr=0x000002ec, data=0x634bf9c6, wlast=0
# [WRITE_SLAVE]   Beat: addr=0x000002ec, data=0x571513ae, wlast=0
# [WRITE_SLAVE]   Beat: addr=0x000002ec, data=0xde7502bc, wlast=0
# [WRITE_SLAVE]   Beat: addr=0x000002ec, data=0x150fdd2a, wlast=1
# [WRITE_SLAVE] Write burst complete, sending response
# [WRITE_SLAVE] Response acknowledged, ready for next burst
# 
# [MONITOR] Write: Captured WLAST at beat 10 (len=10)
# [DRIVER] Write response captured: bresp=0
# [MONITOR] About to m2.put() write txn: addr=0x000002ec, id=10, time=1515
# [MONITOR] watch_write() CALL #8 starting, time=1515
# [SCOREBOARD] Write: addr=0x000002ec, len=10, size=1 (bytes_per_beat=2)
# [SCOREBOARD]   Beat 0: addr=0x000002ec -> mem[187] = 0x452e6100
# [SCOREBOARD]   Beat 1: addr=0x000002ec -> mem[187] = 0x202eb300
# [SCOREBOARD]   Beat 2: addr=0x000002ec -> mem[187] = 0x202eb3d8
# [SCOREBOARD]   Beat 3: addr=0x000002ec -> mem[187] = 0x2020f378
# [SCOREBOARD]   Beat 4: addr=0x000002ec -> mem[187] = 0xc48a1278
# [SCOREBOARD]   Beat 5: addr=0x000002ec -> mem[187] = 0x758a1278
# [SCOREBOARD]   Beat 6: addr=0x000002ec -> mem[187] = 0x5b0265b6
# [SCOREBOARD]   Beat 7: addr=0x000002ec -> mem[187] = 0x630265c6
# [SCOREBOARD]   Beat 8: addr=0x000002ec -> mem[187] = 0x571513ae
# [SCOREBOARD]   Beat 9: addr=0x000002ec -> mem[187] = 0x577502bc
# [SCOREBOARD]   Beat 10: addr=0x000002ec -> mem[187] = 0x5775022a
# [SCOREBOARD] Write response observed: bresp=0
# [DRIVER] Starting transaction 13 (is_write=0)
# [READ_SLAVE] Read burst accepted: addr=0x000002b6, len=8, size=1
# [MONITOR] Read: addr=0x000002b6, len=8, size=1, burst=0
# [READ_SLAVE] Beat 1: addr=0x000002b6
# [DRIVER] Read beat 0: data=0x35ff0000 rresp=0 rid=8
# [MONITOR] Read: Beat 0: data=0x35ff0000, resp=0, rlast=0
# [READ_SLAVE] Beat 2: addr=0x000002b6
# [DRIVER] Read beat 1: data=0x35ff0000 rresp=0 rid=8
# [MONITOR] Read: Beat 1: data=0x35ff0000, resp=0, rlast=0
# [READ_SLAVE] Beat 3: addr=0x000002b6
# [DRIVER] Read beat 2: data=0x35ff0000 rresp=0 rid=8
# [MONITOR] Read: Beat 2: data=0x35ff0000, resp=0, rlast=0
# [READ_SLAVE] Beat 4: addr=0x000002b6
# [DRIVER] Read beat 3: data=0x35ff0000 rresp=0 rid=8
# [MONITOR] Read: Beat 3: data=0x35ff0000, resp=0, rlast=0
# [READ_SLAVE] Beat 5: addr=0x000002b6
# [DRIVER] Read beat 4: data=0x35ff0000 rresp=0 rid=8
# [MONITOR] Read: Beat 4: data=0x35ff0000, resp=0, rlast=0
# [READ_SLAVE] Beat 6: addr=0x000002b6
# [DRIVER] Read beat 5: data=0x35ff0000 rresp=0 rid=8
# [MONITOR] Read: Beat 5: data=0x35ff0000, resp=0, rlast=0
# [READ_SLAVE] Beat 7: addr=0x000002b6
# [DRIVER] Read beat 6: data=0x35ff0000 rresp=0 rid=8
# [MONITOR] Read: Beat 6: data=0x35ff0000, resp=0, rlast=0
# [READ_SLAVE] Beat 8: addr=0x000002b6
# [DRIVER] Read beat 7: data=0x35ff0000 rresp=0 rid=8
# [MONITOR] Read: Beat 7: data=0x35ff0000, resp=0, rlast=0
# [READ_SLAVE] Read burst complete (beats transferred: 9)
# [DRIVER] Read beat 8: data=0x35ff0000 rresp=0 rid=8
# [MONITOR] Read: Beat 8: data=0x35ff0000, resp=0, rlast=1
# [MONITOR] Read: Captured RLAST at beat 8 (expected len=8)
# [DRIVER] Starting transaction 14 (is_write=0)
# [SCOREBOARD] Read Check: addr=0x000002b6, len=8, size=1
# [SCOREBOARD] READ PASS: Beat 0: addr=0x000002b6 (mem[173]), expected=0x35ff0000 actual=0x35ff0000
# [SCOREBOARD] READ PASS: Beat 1: addr=0x000002b6 (mem[173]), expected=0x35ff0000 actual=0x35ff0000
# [SCOREBOARD] READ PASS: Beat 2: addr=0x000002b6 (mem[173]), expected=0x35ff0000 actual=0x35ff0000
# [SCOREBOARD] READ PASS: Beat 3: addr=0x000002b6 (mem[173]), expected=0x35ff0000 actual=0x35ff0000
# [SCOREBOARD] READ PASS: Beat 4: addr=0x000002b6 (mem[173]), expected=0x35ff0000 actual=0x35ff0000
# [SCOREBOARD] READ PASS: Beat 5: addr=0x000002b6 (mem[173]), expected=0x35ff0000 actual=0x35ff0000
# [SCOREBOARD] READ PASS: Beat 6: addr=0x000002b6 (mem[173]), expected=0x35ff0000 actual=0x35ff0000
# [SCOREBOARD] READ PASS: Beat 7: addr=0x000002b6 (mem[173]), expected=0x35ff0000 actual=0x35ff0000
# [SCOREBOARD] READ PASS: Beat 8: addr=0x000002b6 (mem[173]), expected=0x35ff0000 actual=0x35ff0000
# [READ_SLAVE] Read burst accepted: addr=0x000002ec, len=10, size=1
# [MONITOR] Read: addr=0x000002ec, len=10, size=1, burst=0
# [READ_SLAVE] Beat 1: addr=0x000002ec
# [DRIVER] Read beat 0: data=0x0000022a rresp=0 rid=10
# [MONITOR] Read: Beat 0: data=0x0000022a, resp=0, rlast=0
# [READ_SLAVE] Beat 2: addr=0x000002ec
# [DRIVER] Read beat 1: data=0x0000022a rresp=0 rid=10
# [MONITOR] Read: Beat 1: data=0x0000022a, resp=0, rlast=0
# [READ_SLAVE] Beat 3: addr=0x000002ec
# [DRIVER] Read beat 2: data=0x0000022a rresp=0 rid=10
# [MONITOR] Read: Beat 2: data=0x0000022a, resp=0, rlast=0
# [READ_SLAVE] Beat 4: addr=0x000002ec
# [DRIVER] Read beat 3: data=0x0000022a rresp=0 rid=10
# [MONITOR] Read: Beat 3: data=0x0000022a, resp=0, rlast=0
# [READ_SLAVE] Beat 5: addr=0x000002ec
# [DRIVER] Read beat 4: data=0x0000022a rresp=0 rid=10
# [MONITOR] Read: Beat 4: data=0x0000022a, resp=0, rlast=0
# [READ_SLAVE] Beat 6: addr=0x000002ec
# [DRIVER] Read beat 5: data=0x0000022a rresp=0 rid=10
# [MONITOR] Read: Beat 5: data=0x0000022a, resp=0, rlast=0
# [READ_SLAVE] Beat 7: addr=0x000002ec
# [DRIVER] Read beat 6: data=0x0000022a rresp=0 rid=10
# [MONITOR] Read: Beat 6: data=0x0000022a, resp=0, rlast=0
# [READ_SLAVE] Beat 8: addr=0x000002ec
# [DRIVER] Read beat 7: data=0x0000022a rresp=0 rid=10
# [MONITOR] Read: Beat 7: data=0x0000022a, resp=0, rlast=0
# [READ_SLAVE] Beat 9: addr=0x000002ec
# [DRIVER] Read beat 8: data=0x0000022a rresp=0 rid=10
# [MONITOR] Read: Beat 8: data=0x0000022a, resp=0, rlast=0
# [READ_SLAVE] Beat 10: addr=0x000002ec
# [DRIVER] Read beat 9: data=0x0000022a rresp=0 rid=10
# [MONITOR] Read: Beat 9: data=0x0000022a, resp=0, rlast=0
# [READ_SLAVE] Read burst complete (beats transferred: 11)
# [DRIVER] Read beat 10: data=0x0000022a rresp=0 rid=10
# [MONITOR] Read: Beat 10: data=0x0000022a, resp=0, rlast=1
# [MONITOR] Read: Captured RLAST at beat 10 (expected len=10)
# [DRIVER] Starting transaction 15 (is_write=0)
# [SCOREBOARD] Read Check: addr=0x000002ec, len=10, size=1
# [SCOREBOARD] READ PASS: Beat 0: addr=0x000002ec (mem[187]), expected=0x0000022a actual=0x0000022a
# [SCOREBOARD] READ PASS: Beat 1: addr=0x000002ec (mem[187]), expected=0x0000022a actual=0x0000022a
# [SCOREBOARD] READ PASS: Beat 2: addr=0x000002ec (mem[187]), expected=0x0000022a actual=0x0000022a
# [SCOREBOARD] READ PASS: Beat 3: addr=0x000002ec (mem[187]), expected=0x0000022a actual=0x0000022a
# [SCOREBOARD] READ PASS: Beat 4: addr=0x000002ec (mem[187]), expected=0x0000022a actual=0x0000022a
# [SCOREBOARD] READ PASS: Beat 5: addr=0x000002ec (mem[187]), expected=0x0000022a actual=0x0000022a
# [SCOREBOARD] READ PASS: Beat 6: addr=0x000002ec (mem[187]), expected=0x0000022a actual=0x0000022a
# [SCOREBOARD] READ PASS: Beat 7: addr=0x000002ec (mem[187]), expected=0x0000022a actual=0x0000022a
# [SCOREBOARD] READ PASS: Beat 8: addr=0x000002ec (mem[187]), expected=0x0000022a actual=0x0000022a
# [SCOREBOARD] READ PASS: Beat 9: addr=0x000002ec (mem[187]), expected=0x0000022a actual=0x0000022a
# [SCOREBOARD] READ PASS: Beat 10: addr=0x000002ec (mem[187]), expected=0x0000022a actual=0x0000022a
# [READ_SLAVE] Read burst accepted: addr=0x000002ec, len=10, size=1
# [MONITOR] Read: addr=0x000002ec, len=10, size=1, burst=0
# [READ_SLAVE] Beat 1: addr=0x000002ec
# [DRIVER] Read beat 0: data=0x0000022a rresp=0 rid=3
# [MONITOR] Read: Beat 0: data=0x0000022a, resp=0, rlast=0
# [READ_SLAVE] Beat 2: addr=0x000002ec
# [DRIVER] Read beat 1: data=0x0000022a rresp=0 rid=3
# [MONITOR] Read: Beat 1: data=0x0000022a, resp=0, rlast=0
# [READ_SLAVE] Beat 3: addr=0x000002ec
# [DRIVER] Read beat 2: data=0x0000022a rresp=0 rid=3
# [MONITOR] Read: Beat 2: data=0x0000022a, resp=0, rlast=0
# [READ_SLAVE] Beat 4: addr=0x000002ec
# [DRIVER] Read beat 3: data=0x0000022a rresp=0 rid=3
# [MONITOR] Read: Beat 3: data=0x0000022a, resp=0, rlast=0
# [READ_SLAVE] Beat 5: addr=0x000002ec
# [DRIVER] Read beat 4: data=0x0000022a rresp=0 rid=3
# [MONITOR] Read: Beat 4: data=0x0000022a, resp=0, rlast=0
# [READ_SLAVE] Beat 6: addr=0x000002ec
# [DRIVER] Read beat 5: data=0x0000022a rresp=0 rid=3
# [MONITOR] Read: Beat 5: data=0x0000022a, resp=0, rlast=0
# [READ_SLAVE] Beat 7: addr=0x000002ec
# [DRIVER] Read beat 6: data=0x0000022a rresp=0 rid=3
# [MONITOR] Read: Beat 6: data=0x0000022a, resp=0, rlast=0
# [READ_SLAVE] Beat 8: addr=0x000002ec
# [DRIVER] Read beat 7: data=0x0000022a rresp=0 rid=3
# [MONITOR] Read: Beat 7: data=0x0000022a, resp=0, rlast=0
# [READ_SLAVE] Beat 9: addr=0x000002ec
# [DRIVER] Read beat 8: data=0x0000022a rresp=0 rid=3
# [MONITOR] Read: Beat 8: data=0x0000022a, resp=0, rlast=0
# [READ_SLAVE] Beat 10: addr=0x000002ec
# [DRIVER] Read beat 9: data=0x0000022a rresp=0 rid=3
# [MONITOR] Read: Beat 9: data=0x0000022a, resp=0, rlast=0
# [READ_SLAVE] Read burst complete (beats transferred: 11)
# [DRIVER] Read beat 10: data=0x0000022a rresp=0 rid=3
# [MONITOR] Read: Beat 10: data=0x0000022a, resp=0, rlast=1
# [MONITOR] Read: Captured RLAST at beat 10 (expected len=10)
# [DRIVER] Starting transaction 16 (is_write=0)
# [SCOREBOARD] Read Check: addr=0x000002ec, len=10, size=1
# [SCOREBOARD] READ PASS: Beat 0: addr=0x000002ec (mem[187]), expected=0x0000022a actual=0x0000022a
# [SCOREBOARD] READ PASS: Beat 1: addr=0x000002ec (mem[187]), expected=0x0000022a actual=0x0000022a
# [SCOREBOARD] READ PASS: Beat 2: addr=0x000002ec (mem[187]), expected=0x0000022a actual=0x0000022a
# [SCOREBOARD] READ PASS: Beat 3: addr=0x000002ec (mem[187]), expected=0x0000022a actual=0x0000022a
# [SCOREBOARD] READ PASS: Beat 4: addr=0x000002ec (mem[187]), expected=0x0000022a actual=0x0000022a
# [SCOREBOARD] READ PASS: Beat 5: addr=0x000002ec (mem[187]), expected=0x0000022a actual=0x0000022a
# [SCOREBOARD] READ PASS: Beat 6: addr=0x000002ec (mem[187]), expected=0x0000022a actual=0x0000022a
# [SCOREBOARD] READ PASS: Beat 7: addr=0x000002ec (mem[187]), expected=0x0000022a actual=0x0000022a
# [SCOREBOARD] READ PASS: Beat 8: addr=0x000002ec (mem[187]), expected=0x0000022a actual=0x0000022a
# [SCOREBOARD] READ PASS: Beat 9: addr=0x000002ec (mem[187]), expected=0x0000022a actual=0x0000022a
# [SCOREBOARD] READ PASS: Beat 10: addr=0x000002ec (mem[187]), expected=0x0000022a actual=0x0000022a
# [READ_SLAVE] Read burst accepted: addr=0x000003ac, len=5, size=1
# [MONITOR] Read: addr=0x000003ac, len=5, size=1, burst=0
# [READ_SLAVE] Beat 1: addr=0x000003ac
# [DRIVER] Read beat 0: data=0x0000bdca rresp=0 rid=13
# [MONITOR] Read: Beat 0: data=0x0000bdca, resp=0, rlast=0
# [READ_SLAVE] Beat 2: addr=0x000003ac
# [DRIVER] Read beat 1: data=0x0000bdca rresp=0 rid=13
# [MONITOR] Read: Beat 1: data=0x0000bdca, resp=0, rlast=0
# [READ_SLAVE] Beat 3: addr=0x000003ac
# [DRIVER] Read beat 2: data=0x0000bdca rresp=0 rid=13
# [MONITOR] Read: Beat 2: data=0x0000bdca, resp=0, rlast=0
# [READ_SLAVE] Beat 4: addr=0x000003ac
# [DRIVER] Read beat 3: data=0x0000bdca rresp=0 rid=13
# [MONITOR] Read: Beat 3: data=0x0000bdca, resp=0, rlast=0
# [READ_SLAVE] Beat 5: addr=0x000003ac
# [DRIVER] Read beat 4: data=0x0000bdca rresp=0 rid=13
# [MONITOR] Read: Beat 4: data=0x0000bdca, resp=0, rlast=0
# [READ_SLAVE] Read burst complete (beats transferred: 6)
# [DRIVER] Read beat 5: data=0x0000bdca rresp=0 rid=13
# [MONITOR] Read: Beat 5: data=0x0000bdca, resp=0, rlast=1
# [MONITOR] Read: Captured RLAST at beat 5 (expected len=5)
# [DRIVER] Starting transaction 17 (is_write=0)
# [SCOREBOARD] Read Check: addr=0x000003ac, len=5, size=1
# [SCOREBOARD] READ PASS: Beat 0: addr=0x000003ac (mem[235]), expected=0x0000bdca actual=0x0000bdca
# [SCOREBOARD] READ PASS: Beat 1: addr=0x000003ac (mem[235]), expected=0x0000bdca actual=0x0000bdca
# [SCOREBOARD] READ PASS: Beat 2: addr=0x000003ac (mem[235]), expected=0x0000bdca actual=0x0000bdca
# [SCOREBOARD] READ PASS: Beat 3: addr=0x000003ac (mem[235]), expected=0x0000bdca actual=0x0000bdca
# [SCOREBOARD] READ PASS: Beat 4: addr=0x000003ac (mem[235]), expected=0x0000bdca actual=0x0000bdca
# [SCOREBOARD] READ PASS: Beat 5: addr=0x000003ac (mem[235]), expected=0x0000bdca actual=0x0000bdca
# [READ_SLAVE] Read burst accepted: addr=0x0000029e, len=7, size=0
# [MONITOR] Read: addr=0x0000029e, len=7, size=0, burst=0
# [READ_SLAVE] Beat 1: addr=0x0000029e
# [DRIVER] Read beat 0: data=0x00cc0000 rresp=0 rid=8
# [MONITOR] Read: Beat 0: data=0x00cc0000, resp=0, rlast=0
# [READ_SLAVE] Beat 2: addr=0x0000029e
# [DRIVER] Read beat 1: data=0x00cc0000 rresp=0 rid=8
# [MONITOR] Read: Beat 1: data=0x00cc0000, resp=0, rlast=0
# [READ_SLAVE] Beat 3: addr=0x0000029e
# [DRIVER] Read beat 2: data=0x00cc0000 rresp=0 rid=8
# [MONITOR] Read: Beat 2: data=0x00cc0000, resp=0, rlast=0
# [READ_SLAVE] Beat 4: addr=0x0000029e
# [DRIVER] Read beat 3: data=0x00cc0000 rresp=0 rid=8
# [MONITOR] Read: Beat 3: data=0x00cc0000, resp=0, rlast=0
# [READ_SLAVE] Beat 5: addr=0x0000029e
# [DRIVER] Read beat 4: data=0x00cc0000 rresp=0 rid=8
# [MONITOR] Read: Beat 4: data=0x00cc0000, resp=0, rlast=0
# [READ_SLAVE] Beat 6: addr=0x0000029e
# [DRIVER] Read beat 5: data=0x00cc0000 rresp=0 rid=8
# [MONITOR] Read: Beat 5: data=0x00cc0000, resp=0, rlast=0
# [READ_SLAVE] Beat 7: addr=0x0000029e
# [DRIVER] Read beat 6: data=0x00cc0000 rresp=0 rid=8
# [MONITOR] Read: Beat 6: data=0x00cc0000, resp=0, rlast=0
# [READ_SLAVE] Read burst complete (beats transferred: 8)
# [DRIVER] Read beat 7: data=0x00cc0000 rresp=0 rid=8
# [MONITOR] Read: Beat 7: data=0x00cc0000, resp=0, rlast=1
# [MONITOR] Read: Captured RLAST at beat 7 (expected len=7)
# [DRIVER] Starting transaction 18 (is_write=0)
# [SCOREBOARD] Read Check: addr=0x0000029e, len=7, size=0
# [SCOREBOARD] READ PASS: Beat 0: addr=0x0000029e (mem[167]), expected=0x00cc0000 actual=0x00cc0000
# [SCOREBOARD] READ PASS: Beat 1: addr=0x0000029e (mem[167]), expected=0x00cc0000 actual=0x00cc0000
# [SCOREBOARD] READ PASS: Beat 2: addr=0x0000029e (mem[167]), expected=0x00cc0000 actual=0x00cc0000
# [SCOREBOARD] READ PASS: Beat 3: addr=0x0000029e (mem[167]), expected=0x00cc0000 actual=0x00cc0000
# [SCOREBOARD] READ PASS: Beat 4: addr=0x0000029e (mem[167]), expected=0x00cc0000 actual=0x00cc0000
# [SCOREBOARD] READ PASS: Beat 5: addr=0x0000029e (mem[167]), expected=0x00cc0000 actual=0x00cc0000
# [SCOREBOARD] READ PASS: Beat 6: addr=0x0000029e (mem[167]), expected=0x00cc0000 actual=0x00cc0000
# [SCOREBOARD] READ PASS: Beat 7: addr=0x0000029e (mem[167]), expected=0x00cc0000 actual=0x00cc0000
# [READ_SLAVE] Read burst accepted: addr=0x0000029e, len=7, size=0
# [MONITOR] Read: addr=0x0000029e, len=7, size=0, burst=0
# [READ_SLAVE] Beat 1: addr=0x0000029e
# [DRIVER] Read beat 0: data=0x00cc0000 rresp=0 rid=0
# [MONITOR] Read: Beat 0: data=0x00cc0000, resp=0, rlast=0
# [READ_SLAVE] Beat 2: addr=0x0000029e
# [DRIVER] Read beat 1: data=0x00cc0000 rresp=0 rid=0
# [MONITOR] Read: Beat 1: data=0x00cc0000, resp=0, rlast=0
# [READ_SLAVE] Beat 3: addr=0x0000029e
# [DRIVER] Read beat 2: data=0x00cc0000 rresp=0 rid=0
# [MONITOR] Read: Beat 2: data=0x00cc0000, resp=0, rlast=0
# [READ_SLAVE] Beat 4: addr=0x0000029e
# [DRIVER] Read beat 3: data=0x00cc0000 rresp=0 rid=0
# [MONITOR] Read: Beat 3: data=0x00cc0000, resp=0, rlast=0
# [READ_SLAVE] Beat 5: addr=0x0000029e
# [DRIVER] Read beat 4: data=0x00cc0000 rresp=0 rid=0
# [MONITOR] Read: Beat 4: data=0x00cc0000, resp=0, rlast=0
# [READ_SLAVE] Beat 6: addr=0x0000029e
# [DRIVER] Read beat 5: data=0x00cc0000 rresp=0 rid=0
# [MONITOR] Read: Beat 5: data=0x00cc0000, resp=0, rlast=0
# [READ_SLAVE] Beat 7: addr=0x0000029e
# [DRIVER] Read beat 6: data=0x00cc0000 rresp=0 rid=0
# [MONITOR] Read: Beat 6: data=0x00cc0000, resp=0, rlast=0
# [READ_SLAVE] Read burst complete (beats transferred: 8)
# [DRIVER] Read beat 7: data=0x00cc0000 rresp=0 rid=0
# [MONITOR] Read: Beat 7: data=0x00cc0000, resp=0, rlast=1
# [MONITOR] Read: Captured RLAST at beat 7 (expected len=7)
# [DRIVER] Starting transaction 19 (is_write=1)
# [SCOREBOARD] Read Check: addr=0x0000029e, len=7, size=0
# [SCOREBOARD] READ PASS: Beat 0: addr=0x0000029e (mem[167]), expected=0x00cc0000 actual=0x00cc0000
# [SCOREBOARD] READ PASS: Beat 1: addr=0x0000029e (mem[167]), expected=0x00cc0000 actual=0x00cc0000
# [SCOREBOARD] READ PASS: Beat 2: addr=0x0000029e (mem[167]), expected=0x00cc0000 actual=0x00cc0000
# [SCOREBOARD] READ PASS: Beat 3: addr=0x0000029e (mem[167]), expected=0x00cc0000 actual=0x00cc0000
# [SCOREBOARD] READ PASS: Beat 4: addr=0x0000029e (mem[167]), expected=0x00cc0000 actual=0x00cc0000
# [SCOREBOARD] READ PASS: Beat 5: addr=0x0000029e (mem[167]), expected=0x00cc0000 actual=0x00cc0000
# [SCOREBOARD] READ PASS: Beat 6: addr=0x0000029e (mem[167]), expected=0x00cc0000 actual=0x00cc0000
# [SCOREBOARD] READ PASS: Beat 7: addr=0x0000029e (mem[167]), expected=0x00cc0000 actual=0x00cc0000
# [WRITE_SLAVE] Write burst accepted: addr=0x00000375, len=8, size=0
# [MONITOR] Write: addr=0x00000375, len=8, size=0, burst=1
# [WRITE_SLAVE]   Beat: addr=0x00000375, data=0x85d79a0b, wlast=0
# [WRITE_SLAVE]   Beat: addr=0x00000376, data=0xb897be71, wlast=0
# [WRITE_SLAVE]   Beat: addr=0x00000377, data=0x42f24185, wlast=0
# [WRITE_SLAVE]   Beat: addr=0x00000378, data=0x27f2554f, wlast=0
# [WRITE_SLAVE]   Beat: addr=0x00000379, data=0x9dcc603b, wlast=0
# [WRITE_SLAVE]   Beat: addr=0x0000037a, data=0x1d06333a, wlast=0
# [WRITE_SLAVE]   Beat: addr=0x0000037b, data=0xbf23327e, wlast=0
# [WRITE_SLAVE]   Beat: addr=0x0000037c, data=0x0aaa4b15, wlast=0
# [WRITE_SLAVE]   Beat: addr=0x0000037d, data=0x78d99bf1, wlast=1
# [WRITE_SLAVE] Write burst complete, sending response
# [WRITE_SLAVE] Response acknowledged, ready for next burst
# 
# [MONITOR] Write: Captured WLAST at beat 8 (len=8)
# [DRIVER] Write response captured: bresp=0
# [MONITOR] About to m2.put() write txn: addr=0x00000375, id=3, time=2295
# [MONITOR] watch_write() CALL #9 starting, time=2295
# [SCOREBOARD] Write: addr=0x00000375, len=8, size=0 (bytes_per_beat=1)
# [SCOREBOARD]   Beat 0: addr=0x00000375 -> mem[221] = 0x00009a0b
# [SCOREBOARD]   Beat 1: addr=0x00000376 -> mem[221] = 0xb8009a0b
# [SCOREBOARD]   Beat 2: addr=0x00000377 -> mem[221] = 0x42f2410b
# [SCOREBOARD]   Beat 3: addr=0x00000378 -> mem[222] = 0x00005500
# [SCOREBOARD]   Beat 4: addr=0x00000379 -> mem[222] = 0x9d005500
# [SCOREBOARD]   Beat 5: addr=0x0000037a -> mem[222] = 0x9d06333a
# [SCOREBOARD]   Beat 6: addr=0x0000037b -> mem[222] = 0xbf06327e
# [SCOREBOARD]   Beat 7: addr=0x0000037c -> mem[223] = 0x0aaa4b15
# [SCOREBOARD]   Beat 8: addr=0x0000037d -> mem[223] = 0x0aaa9bf1
# [SCOREBOARD] Write response observed: bresp=0
# [DRIVER] Starting transaction 20 (is_write=0)
# [READ_SLAVE] Read burst accepted: addr=0x0000029e, len=7, size=0
# [MONITOR] Read: addr=0x0000029e, len=7, size=0, burst=0
# [READ_SLAVE] Beat 1: addr=0x0000029e
# [DRIVER] Read beat 0: data=0x00cc0000 rresp=0 rid=6
# [MONITOR] Read: Beat 0: data=0x00cc0000, resp=0, rlast=0
# [READ_SLAVE] Beat 2: addr=0x0000029e
# [DRIVER] Read beat 1: data=0x00cc0000 rresp=0 rid=6
# [MONITOR] Read: Beat 1: data=0x00cc0000, resp=0, rlast=0
# [READ_SLAVE] Beat 3: addr=0x0000029e
# [DRIVER] Read beat 2: data=0x00cc0000 rresp=0 rid=6
# [MONITOR] Read: Beat 2: data=0x00cc0000, resp=0, rlast=0
# [READ_SLAVE] Beat 4: addr=0x0000029e
# [DRIVER] Read beat 3: data=0x00cc0000 rresp=0 rid=6
# [MONITOR] Read: Beat 3: data=0x00cc0000, resp=0, rlast=0
# [READ_SLAVE] Beat 5: addr=0x0000029e
# [DRIVER] Read beat 4: data=0x00cc0000 rresp=0 rid=6
# [MONITOR] Read: Beat 4: data=0x00cc0000, resp=0, rlast=0
# [READ_SLAVE] Beat 6: addr=0x0000029e
# [DRIVER] Read beat 5: data=0x00cc0000 rresp=0 rid=6
# [MONITOR] Read: Beat 5: data=0x00cc0000, resp=0, rlast=0
# [READ_SLAVE] Beat 7: addr=0x0000029e
# [DRIVER] Read beat 6: data=0x00cc0000 rresp=0 rid=6
# [MONITOR] Read: Beat 6: data=0x00cc0000, resp=0, rlast=0
# [READ_SLAVE] Read burst complete (beats transferred: 8)
# [DRIVER] Read beat 7: data=0x00cc0000 rresp=0 rid=6
# [MONITOR] Read: Beat 7: data=0x00cc0000, resp=0, rlast=1
# [MONITOR] Read: Captured RLAST at beat 7 (expected len=7)
# [DRIVER] Starting transaction 21 (is_write=0)
# [SCOREBOARD] Read Check: addr=0x0000029e, len=7, size=0
# [SCOREBOARD] READ PASS: Beat 0: addr=0x0000029e (mem[167]), expected=0x00cc0000 actual=0x00cc0000
# [SCOREBOARD] READ PASS: Beat 1: addr=0x0000029e (mem[167]), expected=0x00cc0000 actual=0x00cc0000
# [SCOREBOARD] READ PASS: Beat 2: addr=0x0000029e (mem[167]), expected=0x00cc0000 actual=0x00cc0000
# [SCOREBOARD] READ PASS: Beat 3: addr=0x0000029e (mem[167]), expected=0x00cc0000 actual=0x00cc0000
# [SCOREBOARD] READ PASS: Beat 4: addr=0x0000029e (mem[167]), expected=0x00cc0000 actual=0x00cc0000
# [SCOREBOARD] READ PASS: Beat 5: addr=0x0000029e (mem[167]), expected=0x00cc0000 actual=0x00cc0000
# [SCOREBOARD] READ PASS: Beat 6: addr=0x0000029e (mem[167]), expected=0x00cc0000 actual=0x00cc0000
# [SCOREBOARD] READ PASS: Beat 7: addr=0x0000029e (mem[167]), expected=0x00cc0000 actual=0x00cc0000
# [READ_SLAVE] Read burst accepted: addr=0x000003f2, len=4, size=1
# [MONITOR] Read: addr=0x000003f2, len=4, size=1, burst=1
# [READ_SLAVE] Beat 1: addr=0x000003f4
# [DRIVER] Read beat 0: data=0xe7000000 rresp=0 rid=5
# [MONITOR] Read: Beat 0: data=0xe7000000, resp=0, rlast=0
# [READ_SLAVE] Beat 2: addr=0x000003f6
# [DRIVER] Read beat 1: data=0x00004ec5 rresp=0 rid=5
# [MONITOR] Read: Beat 1: data=0x00004ec5, resp=0, rlast=0
# [READ_SLAVE] Beat 3: addr=0x000003f8
# [DRIVER] Read beat 2: data=0xe2000000 rresp=0 rid=5
# [MONITOR] Read: Beat 2: data=0xe2000000, resp=0, rlast=0
# [READ_SLAVE] Beat 4: addr=0x000003fa
# [DRIVER] Read beat 3: data=0x000028bd rresp=0 rid=5
# [MONITOR] Read: Beat 3: data=0x000028bd, resp=0, rlast=0
# [READ_SLAVE] Read burst complete (beats transferred: 5)
# [DRIVER] Read beat 4: data=0xde000000 rresp=0 rid=5
# [MONITOR] Read: Beat 4: data=0xde000000, resp=0, rlast=1
# [MONITOR] Read: Captured RLAST at beat 4 (expected len=4)
# [DRIVER] Starting transaction 22 (is_write=0)
# [SCOREBOARD] Read Check: addr=0x000003f2, len=4, size=1
# [SCOREBOARD] READ PASS: Beat 0: addr=0x000003f2 (mem[252]), expected=0xe7000000 actual=0xe7000000
# [SCOREBOARD] READ PASS: Beat 1: addr=0x000003f4 (mem[253]), expected=0x00004ec5 actual=0x00004ec5
# [SCOREBOARD] READ PASS: Beat 2: addr=0x000003f6 (mem[253]), expected=0xe2000000 actual=0xe2000000
# [SCOREBOARD] READ PASS: Beat 3: addr=0x000003f8 (mem[254]), expected=0x000028bd actual=0x000028bd
# [SCOREBOARD] READ PASS: Beat 4: addr=0x000003fa (mem[254]), expected=0xde000000 actual=0xde000000
# [READ_SLAVE] Read burst accepted: addr=0x000003f2, len=4, size=1
# [MONITOR] Read: addr=0x000003f2, len=4, size=1, burst=1
# [READ_SLAVE] Beat 1: addr=0x000003f4
# [DRIVER] Read beat 0: data=0xe7000000 rresp=0 rid=10
# [MONITOR] Read: Beat 0: data=0xe7000000, resp=0, rlast=0
# [READ_SLAVE] Beat 2: addr=0x000003f6
# [DRIVER] Read beat 1: data=0x00004ec5 rresp=0 rid=10
# [MONITOR] Read: Beat 1: data=0x00004ec5, resp=0, rlast=0
# [READ_SLAVE] Beat 3: addr=0x000003f8
# [DRIVER] Read beat 2: data=0xe2000000 rresp=0 rid=10
# [MONITOR] Read: Beat 2: data=0xe2000000, resp=0, rlast=0
# [READ_SLAVE] Beat 4: addr=0x000003fa
# [DRIVER] Read beat 3: data=0x000028bd rresp=0 rid=10
# [MONITOR] Read: Beat 3: data=0x000028bd, resp=0, rlast=0
# [READ_SLAVE] Read burst complete (beats transferred: 5)
# [DRIVER] Read beat 4: data=0xde000000 rresp=0 rid=10
# [MONITOR] Read: Beat 4: data=0xde000000, resp=0, rlast=1
# [MONITOR] Read: Captured RLAST at beat 4 (expected len=4)
# [DRIVER] Starting transaction 23 (is_write=1)
# [SCOREBOARD] Read Check: addr=0x000003f2, len=4, size=1
# [SCOREBOARD] READ PASS: Beat 0: addr=0x000003f2 (mem[252]), expected=0xe7000000 actual=0xe7000000
# [SCOREBOARD] READ PASS: Beat 1: addr=0x000003f4 (mem[253]), expected=0x00004ec5 actual=0x00004ec5
# [SCOREBOARD] READ PASS: Beat 2: addr=0x000003f6 (mem[253]), expected=0xe2000000 actual=0xe2000000
# [SCOREBOARD] READ PASS: Beat 3: addr=0x000003f8 (mem[254]), expected=0x000028bd actual=0x000028bd
# [SCOREBOARD] READ PASS: Beat 4: addr=0x000003fa (mem[254]), expected=0xde000000 actual=0xde000000
# [WRITE_SLAVE] Write burst accepted: addr=0x0000037e, len=13, size=1
# [MONITOR] Write: addr=0x0000037e, len=13, size=1, burst=1
# [WRITE_SLAVE]   Beat: addr=0x0000037e, data=0x6c9c4bd9, wlast=0
# [WRITE_SLAVE]   Beat: addr=0x00000380, data=0x31230762, wlast=0
# [WRITE_SLAVE]   Beat: addr=0x00000382, data=0x2635fb4c, wlast=0
# [WRITE_SLAVE]   Beat: addr=0x00000384, data=0x4fa1559f, wlast=0
# [WRITE_SLAVE]   Beat: addr=0x00000386, data=0x47b9a18f, wlast=0
# [WRITE_SLAVE]   Beat: addr=0x00000388, data=0x7c6da9f8, wlast=0
# [WRITE_SLAVE]   Beat: addr=0x0000038a, data=0xdbcd60b7, wlast=0
# [WRITE_SLAVE]   Beat: addr=0x0000038c, data=0xcfc4569f, wlast=0
# [WRITE_SLAVE]   Beat: addr=0x0000038e, data=0xae7d945c, wlast=0
# [WRITE_SLAVE]   Beat: addr=0x00000390, data=0xadcbc05b, wlast=0
# [WRITE_SLAVE]   Beat: addr=0x00000392, data=0x44de3789, wlast=0
# [WRITE_SLAVE]   Beat: addr=0x00000394, data=0xa4ae3249, wlast=0
# [WRITE_SLAVE]   Beat: addr=0x00000396, data=0xe8233ed0, wlast=0
# [WRITE_SLAVE]   Beat: addr=0x00000398, data=0xebfec0d7, wlast=1
# [WRITE_SLAVE] Write burst complete, sending response
# [WRITE_SLAVE] Response acknowledged, ready for next burst
# 
# [MONITOR] Write: Captured WLAST at beat 13 (len=13)
# [DRIVER] Write response captured: bresp=0
# [MONITOR] About to m2.put() write txn: addr=0x0000037e, id=9, time=2715
# [MONITOR] watch_write() CALL #10 starting, time=2715
# [SCOREBOARD] Write: addr=0x0000037e, len=13, size=1 (bytes_per_beat=2)
# [SCOREBOARD]   Beat 0: addr=0x0000037e -> mem[223] = 0x0aaa4bd9
# [SCOREBOARD]   Beat 1: addr=0x00000380 -> mem[224] = 0x31230000
# [SCOREBOARD]   Beat 2: addr=0x00000382 -> mem[224] = 0x2635004c
# [SCOREBOARD]   Beat 3: addr=0x00000384 -> mem[225] = 0x4f00009f
# [SCOREBOARD]   Beat 4: addr=0x00000386 -> mem[225] = 0x4fb9008f
# [SCOREBOARD]   Beat 5: addr=0x00000388 -> mem[226] = 0x006da900
# [SCOREBOARD]   Beat 6: addr=0x0000038a -> mem[226] = 0xdb6d60b7
# [SCOREBOARD]   Beat 7: addr=0x0000038c -> mem[227] = 0x0000009f
# [SCOREBOARD]   Beat 8: addr=0x0000038e -> mem[227] = 0x0000945c
# [SCOREBOARD]   Beat 9: addr=0x00000390 -> mem[228] = 0x00cbc000
# [SCOREBOARD]   Beat 10: addr=0x00000392 -> mem[228] = 0x44cb3789
# [SCOREBOARD]   Beat 11: addr=0x00000394 -> mem[229] = 0x00ae3249
# [SCOREBOARD]   Beat 12: addr=0x00000396 -> mem[229] = 0x00ae32d0
# [SCOREBOARD]   Beat 13: addr=0x00000398 -> mem[230] = 0x00fe0000
# [SCOREBOARD] Write response observed: bresp=0
# [DRIVER] Starting transaction 24 (is_write=1)
# [WRITE_SLAVE] Write burst accepted: addr=0x000002ce, len=11, size=1
# [MONITOR] Write: addr=0x000002ce, len=11, size=1, burst=1
# [WRITE_SLAVE]   Beat: addr=0x000002ce, data=0xa8c7fc51, wlast=0
# [WRITE_SLAVE]   Beat: addr=0x000002d0, data=0x4b212f96, wlast=0
# [WRITE_SLAVE]   Beat: addr=0x000002d2, data=0x061d7f0c, wlast=0
# [WRITE_SLAVE]   Beat: addr=0x000002d4, data=0xe12ccec2, wlast=0
# [WRITE_SLAVE]   Beat: addr=0x000002d6, data=0x6457edc8, wlast=0
# [WRITE_SLAVE]   Beat: addr=0x000002d8, data=0xbb825a77, wlast=0
# [WRITE_SLAVE]   Beat: addr=0x000002da, data=0x1ef2ed3d, wlast=0
# [WRITE_SLAVE]   Beat: addr=0x000002dc, data=0x090cdb12, wlast=0
# [WRITE_SLAVE]   Beat: addr=0x000002de, data=0xbf05007e, wlast=0
# [WRITE_SLAVE]   Beat: addr=0x000002e0, data=0x36e5816d, wlast=0
# [WRITE_SLAVE]   Beat: addr=0x000002e2, data=0x1cd9e739, wlast=0
# [WRITE_SLAVE]   Beat: addr=0x000002e4, data=0x0fd28f1f, wlast=1
# [WRITE_SLAVE] Write burst complete, sending response
# [WRITE_SLAVE] Response acknowledged, ready for next burst
# 
# [MONITOR] Write: Captured WLAST at beat 11 (len=11)
# [DRIVER] Write response captured: bresp=0
# [MONITOR] About to m2.put() write txn: addr=0x000002ce, id=6, time=2875
# [MONITOR] watch_write() CALL #11 starting, time=2875
# [SCOREBOARD] Write: addr=0x000002ce, len=11, size=1 (bytes_per_beat=2)
# [SCOREBOARD]   Beat 0: addr=0x000002ce -> mem[179] = 0x00c70051
# [SCOREBOARD]   Beat 1: addr=0x000002d0 -> mem[180] = 0x4b212f00
# [SCOREBOARD]   Beat 2: addr=0x000002d2 -> mem[180] = 0x06212f0c
# [SCOREBOARD]   Beat 3: addr=0x000002d4 -> mem[181] = 0xe10000c2
# [SCOREBOARD]   Beat 4: addr=0x000002d6 -> mem[181] = 0x645700c8
# [SCOREBOARD]   Beat 5: addr=0x000002d8 -> mem[182] = 0x00820077
# [SCOREBOARD]   Beat 6: addr=0x000002da -> mem[182] = 0x1ef20077
# [SCOREBOARD]   Beat 7: addr=0x000002dc -> mem[183] = 0x090cdb00
# [SCOREBOARD]   Beat 8: addr=0x000002de -> mem[183] = 0xbf05db7e
# [SCOREBOARD]   Beat 9: addr=0x000002e0 -> mem[184] = 0x00008100
# [SCOREBOARD]   Beat 10: addr=0x000002e2 -> mem[184] = 0x0000e700
# [SCOREBOARD]   Beat 11: addr=0x000002e4 -> mem[185] = 0x0fd20000
# [SCOREBOARD] Write response observed: bresp=0
# [DRIVER] Starting transaction 25 (is_write=0)
# [READ_SLAVE] Read burst accepted: addr=0x000002a4, len=10, size=1
# [MONITOR] Read: addr=0x000002a4, len=10, size=1, burst=0
# [READ_SLAVE] Beat 1: addr=0x000002a4
# [DRIVER] Read beat 0: data=0x0000d68f rresp=0 rid=3
# [MONITOR] Read: Beat 0: data=0x0000d68f, resp=0, rlast=0
# [READ_SLAVE] Beat 2: addr=0x000002a4
# [DRIVER] Read beat 1: data=0x0000d68f rresp=0 rid=3
# [MONITOR] Read: Beat 1: data=0x0000d68f, resp=0, rlast=0
# [READ_SLAVE] Beat 3: addr=0x000002a4
# [DRIVER] Read beat 2: data=0x0000d68f rresp=0 rid=3
# [MONITOR] Read: Beat 2: data=0x0000d68f, resp=0, rlast=0
# [READ_SLAVE] Beat 4: addr=0x000002a4
# [DRIVER] Read beat 3: data=0x0000d68f rresp=0 rid=3
# [MONITOR] Read: Beat 3: data=0x0000d68f, resp=0, rlast=0
# [READ_SLAVE] Beat 5: addr=0x000002a4
# [DRIVER] Read beat 4: data=0x0000d68f rresp=0 rid=3
# [MONITOR] Read: Beat 4: data=0x0000d68f, resp=0, rlast=0
# [READ_SLAVE] Beat 6: addr=0x000002a4
# [DRIVER] Read beat 5: data=0x0000d68f rresp=0 rid=3
# [MONITOR] Read: Beat 5: data=0x0000d68f, resp=0, rlast=0
# [READ_SLAVE] Beat 7: addr=0x000002a4
# [DRIVER] Read beat 6: data=0x0000d68f rresp=0 rid=3
# [MONITOR] Read: Beat 6: data=0x0000d68f, resp=0, rlast=0
# [READ_SLAVE] Beat 8: addr=0x000002a4
# [DRIVER] Read beat 7: data=0x0000d68f rresp=0 rid=3
# [MONITOR] Read: Beat 7: data=0x0000d68f, resp=0, rlast=0
# [READ_SLAVE] Beat 9: addr=0x000002a4
# [DRIVER] Read beat 8: data=0x0000d68f rresp=0 rid=3
# [MONITOR] Read: Beat 8: data=0x0000d68f, resp=0, rlast=0
# [READ_SLAVE] Beat 10: addr=0x000002a4
# [DRIVER] Read beat 9: data=0x0000d68f rresp=0 rid=3
# [MONITOR] Read: Beat 9: data=0x0000d68f, resp=0, rlast=0
# [READ_SLAVE] Read burst complete (beats transferred: 11)
# [DRIVER] Read beat 10: data=0x0000d68f rresp=0 rid=3
# [MONITOR] Read: Beat 10: data=0x0000d68f, resp=0, rlast=1
# [MONITOR] Read: Captured RLAST at beat 10 (expected len=10)
# [DRIVER] Starting transaction 26 (is_write=1)
# [SCOREBOARD] Read Check: addr=0x000002a4, len=10, size=1
# [SCOREBOARD] READ PASS: Beat 0: addr=0x000002a4 (mem[169]), expected=0x0000d68f actual=0x0000d68f
# [SCOREBOARD] READ PASS: Beat 1: addr=0x000002a4 (mem[169]), expected=0x0000d68f actual=0x0000d68f
# [SCOREBOARD] READ PASS: Beat 2: addr=0x000002a4 (mem[169]), expected=0x0000d68f actual=0x0000d68f
# [SCOREBOARD] READ PASS: Beat 3: addr=0x000002a4 (mem[169]), expected=0x0000d68f actual=0x0000d68f
# [SCOREBOARD] READ PASS: Beat 4: addr=0x000002a4 (mem[169]), expected=0x0000d68f actual=0x0000d68f
# [SCOREBOARD] READ PASS: Beat 5: addr=0x000002a4 (mem[169]), expected=0x0000d68f actual=0x0000d68f
# [SCOREBOARD] READ PASS: Beat 6: addr=0x000002a4 (mem[169]), expected=0x0000d68f actual=0x0000d68f
# [SCOREBOARD] READ PASS: Beat 7: addr=0x000002a4 (mem[169]), expected=0x0000d68f actual=0x0000d68f
# [SCOREBOARD] READ PASS: Beat 8: addr=0x000002a4 (mem[169]), expected=0x0000d68f actual=0x0000d68f
# [SCOREBOARD] READ PASS: Beat 9: addr=0x000002a4 (mem[169]), expected=0x0000d68f actual=0x0000d68f
# [SCOREBOARD] READ PASS: Beat 10: addr=0x000002a4 (mem[169]), expected=0x0000d68f actual=0x0000d68f
# [WRITE_SLAVE] Write burst accepted: addr=0x00000005, len=15, size=0
# [MONITOR] Write: addr=0x00000005, len=15, size=0, burst=0
# [WRITE_SLAVE]   Beat: addr=0x00000005, data=0xe9ebf6d3, wlast=0
# [WRITE_SLAVE]   Beat: addr=0x00000005, data=0x42d92f85, wlast=0
# [WRITE_SLAVE]   Beat: addr=0x00000005, data=0xbc148878, wlast=0
# [WRITE_SLAVE]   Beat: addr=0x00000005, data=0x2dda595b, wlast=0
# [WRITE_SLAVE]   Beat: addr=0x00000005, data=0x248b4b49, wlast=0
# [WRITE_SLAVE]   Beat: addr=0x00000005, data=0x9ff2ae3f, wlast=0
# [WRITE_SLAVE]   Beat: addr=0x00000005, data=0x150caf2a, wlast=0
# [WRITE_SLAVE]   Beat: addr=0x00000005, data=0x2c156358, wlast=0
# [WRITE_SLAVE]   Beat: addr=0x00000005, data=0xc33f3886, wlast=0
# [WRITE_SLAVE]   Beat: addr=0x00000005, data=0xc71a0c8e, wlast=0
# [WRITE_SLAVE]   Beat: addr=0x00000005, data=0xce2ff29c, wlast=0
# [WRITE_SLAVE]   Beat: addr=0x00000005, data=0x7d3599fa, wlast=0
# [WRITE_SLAVE]   Beat: addr=0x00000005, data=0x937dbc26, wlast=0
# [WRITE_SLAVE]   Beat: addr=0x00000005, data=0x39961773, wlast=0
# [WRITE_SLAVE]   Beat: addr=0x00000005, data=0xd18bb4a3, wlast=0
# [WRITE_SLAVE]   Beat: addr=0x00000005, data=0x9799a82f, wlast=1
# [WRITE_SLAVE] Write burst complete, sending response
# [WRITE_SLAVE] Response acknowledged, ready for next burst
# 
# [MONITOR] Write: Captured WLAST at beat 15 (len=15)
# [DRIVER] Write response captured: bresp=0
# [MONITOR] About to m2.put() write txn: addr=0x00000005, id=3, time=3205
# [MONITOR] watch_write() CALL #12 starting, time=3205
# [SCOREBOARD] Write: addr=0x00000005, len=15, size=0 (bytes_per_beat=1)
# [SCOREBOARD]   Beat 0: addr=0x00000005 -> mem[1] = 0xe9000000
# [SCOREBOARD]   Beat 1: addr=0x00000005 -> mem[1] = 0xe9d90000
# [SCOREBOARD]   Beat 2: addr=0x00000005 -> mem[1] = 0xbcd90000
# [SCOREBOARD]   Beat 3: addr=0x00000005 -> mem[1] = 0x2dda595b
# [SCOREBOARD]   Beat 4: addr=0x00000005 -> mem[1] = 0x248b595b
# [SCOREBOARD]   Beat 5: addr=0x00000005 -> mem[1] = 0x9f8b593f
# [SCOREBOARD]   Beat 6: addr=0x00000005 -> mem[1] = 0x150caf2a
# [SCOREBOARD]   Beat 7: addr=0x00000005 -> mem[1] = 0x2c15af58
# [SCOREBOARD]   Beat 8: addr=0x00000005 -> mem[1] = 0x2c3faf58
# [SCOREBOARD]   Beat 9: addr=0x00000005 -> mem[1] = 0x2c1aaf58
# [SCOREBOARD]   Beat 10: addr=0x00000005 -> mem[1] = 0x2c1af258
# [SCOREBOARD]   Beat 11: addr=0x00000005 -> mem[1] = 0x7d1af2fa
# [SCOREBOARD]   Beat 12: addr=0x00000005 -> mem[1] = 0x937df2fa
# [SCOREBOARD]   Beat 13: addr=0x00000005 -> mem[1] = 0x397df2fa
# [SCOREBOARD]   Beat 14: addr=0x00000005 -> mem[1] = 0xd17db4a3
# [SCOREBOARD]   Beat 15: addr=0x00000005 -> mem[1] = 0x977db4a3
# [SCOREBOARD] Write response observed: bresp=0
# [DRIVER] Starting transaction 27 (is_write=1)
# [WRITE_SLAVE] Write burst accepted: addr=0x000003b2, len=9, size=0
# [MONITOR] Write: addr=0x000003b2, len=9, size=0, burst=0
# [WRITE_SLAVE]   Beat: addr=0x000003b2, data=0xd9d292b3, wlast=0
# [WRITE_SLAVE]   Beat: addr=0x000003b2, data=0xafd8565f, wlast=0
# [WRITE_SLAVE]   Beat: addr=0x000003b2, data=0x22290d44, wlast=0
# [WRITE_SLAVE]   Beat: addr=0x000003b2, data=0x7bf8fdf7, wlast=0
# [WRITE_SLAVE]   Beat: addr=0x000003b2, data=0xe59b36cb, wlast=0
# [WRITE_SLAVE]   Beat: addr=0x000003b2, data=0xf3091ae6, wlast=0
# [WRITE_SLAVE]   Beat: addr=0x000003b2, data=0x2d28db5a, wlast=0
# [WRITE_SLAVE]   Beat: addr=0x000003b2, data=0x14cfc129, wlast=0
# [WRITE_SLAVE]   Beat: addr=0x000003b2, data=0xf682e2ed, wlast=0
# [WRITE_SLAVE]   Beat: addr=0x000003b2, data=0xed536cda, wlast=1
# [WRITE_SLAVE] Write burst complete, sending response
# [WRITE_SLAVE] Response acknowledged, ready for next burst
# 
# [MONITOR] Write: Captured WLAST at beat 9 (len=9)
# [DRIVER] Write response captured: bresp=0
# [MONITOR] About to m2.put() write txn: addr=0x000003b2, id=10, time=3345
# [MONITOR] watch_write() CALL #13 starting, time=3345
# [SCOREBOARD] Write: addr=0x000003b2, len=9, size=0 (bytes_per_beat=1)
# [SCOREBOARD]   Beat 0: addr=0x000003b2 -> mem[236] = 0xd9d200b3
# [SCOREBOARD]   Beat 1: addr=0x000003b2 -> mem[236] = 0xd9d8565f
# [SCOREBOARD]   Beat 2: addr=0x000003b2 -> mem[236] = 0xd929565f
# [SCOREBOARD]   Beat 3: addr=0x000003b2 -> mem[236] = 0xd92956f7
# [SCOREBOARD]   Beat 4: addr=0x000003b2 -> mem[236] = 0xd99b36cb
# [SCOREBOARD]   Beat 5: addr=0x000003b2 -> mem[236] = 0xf3091ae6
# [SCOREBOARD]   Beat 6: addr=0x000003b2 -> mem[236] = 0x2d281ae6
# [SCOREBOARD]   Beat 7: addr=0x000003b2 -> mem[236] = 0x2dcfc129
# [SCOREBOARD]   Beat 8: addr=0x000003b2 -> mem[236] = 0xf6cfe229
# [SCOREBOARD]   Beat 9: addr=0x000003b2 -> mem[236] = 0xf6536cda
# [SCOREBOARD] Write response observed: bresp=0
# [DRIVER] Starting transaction 28 (is_write=1)
# [WRITE_SLAVE] Write burst accepted: addr=0x0000002a, len=12, size=1
# [MONITOR] Write: addr=0x0000002a, len=12, size=1, burst=1
# [WRITE_SLAVE]   Beat: addr=0x0000002a, data=0xb29fb665, wlast=0
# [WRITE_SLAVE]   Beat: addr=0x0000002c, data=0xda8ae2b5, wlast=0
# [WRITE_SLAVE]   Beat: addr=0x0000002e, data=0xefbe94df, wlast=0
# [WRITE_SLAVE]   Beat: addr=0x00000030, data=0x3cf11979, wlast=0
# [WRITE_SLAVE]   Beat: addr=0x00000032, data=0x2231ff44, wlast=0
# [WRITE_SLAVE]   Beat: addr=0x00000034, data=0xe8740cd0, wlast=0
# [WRITE_SLAVE]   Beat: addr=0x00000036, data=0x15090b2a, wlast=0
# [WRITE_SLAVE]   Beat: addr=0x00000038, data=0x55f6adab, wlast=0
# [WRITE_SLAVE]   Beat: addr=0x0000003a, data=0x076fcf0e, wlast=0
# [WRITE_SLAVE]   Beat: addr=0x0000003c, data=0x6e5daddc, wlast=0
# [WRITE_SLAVE]   Beat: addr=0x0000003e, data=0xcd5ebc9a, wlast=0
# [WRITE_SLAVE]   Beat: addr=0x00000040, data=0xfedf72fd, wlast=0
# [WRITE_SLAVE]   Beat: addr=0x00000042, data=0xe1f102c3, wlast=1
# [WRITE_SLAVE] Write burst complete, sending response
# [WRITE_SLAVE] Response acknowledged, ready for next burst
# 
# [MONITOR] Write: Captured WLAST at beat 12 (len=12)
# [DRIVER] Write response captured: bresp=0
# [MONITOR] About to m2.put() write txn: addr=0x0000002a, id=15, time=3515
# [MONITOR] watch_write() CALL #14 starting, time=3515
# [SCOREBOARD] Write: addr=0x0000002a, len=12, size=1 (bytes_per_beat=2)
# [SCOREBOARD]   Beat 0: addr=0x0000002a -> mem[10] = 0xb29fb665
# [SCOREBOARD]   Beat 1: addr=0x0000002c -> mem[11] = 0x008a00b5
# [SCOREBOARD]   Beat 2: addr=0x0000002e -> mem[11] = 0x008a94df
# [SCOREBOARD]   Beat 3: addr=0x00000030 -> mem[12] = 0x3c000000
# [SCOREBOARD]   Beat 4: addr=0x00000032 -> mem[12] = 0x2231ff00
# [SCOREBOARD]   Beat 5: addr=0x00000034 -> mem[13] = 0x00740c00
# [SCOREBOARD]   Beat 6: addr=0x00000036 -> mem[13] = 0x00090b00
# [SCOREBOARD]   Beat 7: addr=0x00000038 -> mem[14] = 0x55000000
# [SCOREBOARD]   Beat 8: addr=0x0000003a -> mem[14] = 0x07000000
# [SCOREBOARD]   Beat 9: addr=0x0000003c -> mem[15] = 0x6e0000dc
# [SCOREBOARD]   Beat 10: addr=0x0000003e -> mem[15] = 0xcd5ebc9a
# [SCOREBOARD]   Beat 11: addr=0x00000040 -> mem[16] = 0xfe0000fd
# [SCOREBOARD]   Beat 12: addr=0x00000042 -> mem[16] = 0xe10002fd
# [SCOREBOARD] Write response observed: bresp=0
# [DRIVER] Starting transaction 29 (is_write=0)
# [READ_SLAVE] Read burst accepted: addr=0x000002b6, len=8, size=1
# [MONITOR] Read: addr=0x000002b6, len=8, size=1, burst=0
# [READ_SLAVE] Beat 1: addr=0x000002b6
# [DRIVER] Read beat 0: data=0x35ff0000 rresp=0 rid=15
# [MONITOR] Read: Beat 0: data=0x35ff0000, resp=0, rlast=0
# [READ_SLAVE] Beat 2: addr=0x000002b6
# [DRIVER] Read beat 1: data=0x35ff0000 rresp=0 rid=15
# [MONITOR] Read: Beat 1: data=0x35ff0000, resp=0, rlast=0
# [READ_SLAVE] Beat 3: addr=0x000002b6
# [DRIVER] Read beat 2: data=0x35ff0000 rresp=0 rid=15
# [MONITOR] Read: Beat 2: data=0x35ff0000, resp=0, rlast=0
# [READ_SLAVE] Beat 4: addr=0x000002b6
# [DRIVER] Read beat 3: data=0x35ff0000 rresp=0 rid=15
# [MONITOR] Read: Beat 3: data=0x35ff0000, resp=0, rlast=0
# [READ_SLAVE] Beat 5: addr=0x000002b6
# [DRIVER] Read beat 4: data=0x35ff0000 rresp=0 rid=15
# [MONITOR] Read: Beat 4: data=0x35ff0000, resp=0, rlast=0
# [READ_SLAVE] Beat 6: addr=0x000002b6
# [DRIVER] Read beat 5: data=0x35ff0000 rresp=0 rid=15
# [MONITOR] Read: Beat 5: data=0x35ff0000, resp=0, rlast=0
# [READ_SLAVE] Beat 7: addr=0x000002b6
# [DRIVER] Read beat 6: data=0x35ff0000 rresp=0 rid=15
# [MONITOR] Read: Beat 6: data=0x35ff0000, resp=0, rlast=0
# [READ_SLAVE] Beat 8: addr=0x000002b6
# [DRIVER] Read beat 7: data=0x35ff0000 rresp=0 rid=15
# [MONITOR] Read: Beat 7: data=0x35ff0000, resp=0, rlast=0
# [READ_SLAVE] Read burst complete (beats transferred: 9)
# [DRIVER] Read beat 8: data=0x35ff0000 rresp=0 rid=15
# [MONITOR] Read: Beat 8: data=0x35ff0000, resp=0, rlast=1
# [MONITOR] Read: Captured RLAST at beat 8 (expected len=8)
# [DRIVER] Starting transaction 30 (is_write=1)
# [SCOREBOARD] Read Check: addr=0x000002b6, len=8, size=1
# [SCOREBOARD] READ PASS: Beat 0: addr=0x000002b6 (mem[173]), expected=0x35ff0000 actual=0x35ff0000
# [SCOREBOARD] READ PASS: Beat 1: addr=0x000002b6 (mem[173]), expected=0x35ff0000 actual=0x35ff0000
# [SCOREBOARD] READ PASS: Beat 2: addr=0x000002b6 (mem[173]), expected=0x35ff0000 actual=0x35ff0000
# [SCOREBOARD] READ PASS: Beat 3: addr=0x000002b6 (mem[173]), expected=0x35ff0000 actual=0x35ff0000
# [SCOREBOARD] READ PASS: Beat 4: addr=0x000002b6 (mem[173]), expected=0x35ff0000 actual=0x35ff0000
# [SCOREBOARD] READ PASS: Beat 5: addr=0x000002b6 (mem[173]), expected=0x35ff0000 actual=0x35ff0000
# [SCOREBOARD] READ PASS: Beat 6: addr=0x000002b6 (mem[173]), expected=0x35ff0000 actual=0x35ff0000
# [SCOREBOARD] READ PASS: Beat 7: addr=0x000002b6 (mem[173]), expected=0x35ff0000 actual=0x35ff0000
# [SCOREBOARD] READ PASS: Beat 8: addr=0x000002b6 (mem[173]), expected=0x35ff0000 actual=0x35ff0000
# [WRITE_SLAVE] Write burst accepted: addr=0x0000039d, len=1, size=0
# [MONITOR] Write: addr=0x0000039d, len=1, size=0, burst=0
# [WRITE_SLAVE]   Beat: addr=0x0000039d, data=0x2b0eed56, wlast=0
# [WRITE_SLAVE]   Beat: addr=0x0000039d, data=0x2779e94e, wlast=1
# [WRITE_SLAVE] Write burst complete, sending response
# [WRITE_SLAVE] Response acknowledged, ready for next burst
# 
# [MONITOR] Write: Captured WLAST at beat 1 (len=1)
# [DRIVER] Write response captured: bresp=0
# [MONITOR] About to m2.put() write txn: addr=0x0000039d, id=2, time=3685
# [MONITOR] watch_write() CALL #15 starting, time=3685
# [SCOREBOARD] Write: addr=0x0000039d, len=1, size=0 (bytes_per_beat=1)
# [SCOREBOARD]   Beat 0: addr=0x0000039d -> mem[231] = 0x2b0eed56
# [SCOREBOARD]   Beat 1: addr=0x0000039d -> mem[231] = 0x2b0ee956
# [SCOREBOARD] Write response observed: bresp=0
# [DRIVER] Starting transaction 31 (is_write=1)
# [WRITE_SLAVE] Write burst accepted: addr=0x00000004, len=7, size=2
# [MONITOR] Write: addr=0x00000004, len=7, size=2, burst=1
# [WRITE_SLAVE]   Beat: addr=0x00000004, data=0xb3d97667, wlast=0
# [WRITE_SLAVE]   Beat: addr=0x00000008, data=0x8531340a, wlast=0
# [WRITE_SLAVE]   Beat: addr=0x0000000c, data=0x5b6fb9b6, wlast=0
# [WRITE_SLAVE]   Beat: addr=0x00000010, data=0x9c0e8a38, wlast=0
# [WRITE_SLAVE]   Beat: addr=0x00000014, data=0x3cd18779, wlast=0
# [WRITE_SLAVE]   Beat: addr=0x00000018, data=0xdc2bc4b8, wlast=0
# [WRITE_SLAVE]   Beat: addr=0x0000001c, data=0x4a74bf94, wlast=0
# [WRITE_SLAVE]   Beat: addr=0x00000020, data=0x49c65d93, wlast=1
# [WRITE_SLAVE] Write burst complete, sending response
# [WRITE_SLAVE] Response acknowledged, ready for next burst
# 
# [MONITOR] Write: Captured WLAST at beat 7 (len=7)
# [DRIVER] Write response captured: bresp=0
# [MONITOR] About to m2.put() write txn: addr=0x00000004, id=6, time=3805
# [MONITOR] watch_write() CALL #16 starting, time=3805
# [SCOREBOARD] Write: addr=0x00000004, len=7, size=2 (bytes_per_beat=4)
# [SCOREBOARD]   Beat 0: addr=0x00000004 -> mem[1] = 0xb3d9b467
# [SCOREBOARD]   Beat 1: addr=0x00000008 -> mem[2] = 0x85003400
# [SCOREBOARD]   Beat 2: addr=0x0000000c -> mem[3] = 0x5b6fb9b6
# [SCOREBOARD]   Beat 3: addr=0x00000010 -> mem[4] = 0x000e8a38
# [SCOREBOARD]   Beat 4: addr=0x00000014 -> mem[5] = 0x00d10079
# [SCOREBOARD]   Beat 5: addr=0x00000018 -> mem[6] = 0xdc00c4b8
# [SCOREBOARD]   Beat 6: addr=0x0000001c -> mem[7] = 0x4a00bf00
# [SCOREBOARD]   Beat 7: addr=0x00000020 -> mem[8] = 0x49c65d93
# [SCOREBOARD] Write response observed: bresp=0
# [DRIVER] Starting transaction 32 (is_write=1)
# [WRITE_SLAVE] Write burst accepted: addr=0x000000f9, len=8, size=0
# [MONITOR] Write: addr=0x000000f9, len=8, size=0, burst=1
# [WRITE_SLAVE]   Beat: addr=0x000000f9, data=0x823f2c04, wlast=0
# [WRITE_SLAVE]   Beat: addr=0x000000fa, data=0xacb7ca59, wlast=0
# [WRITE_SLAVE]   Beat: addr=0x000000fb, data=0x6dcb69db, wlast=0
# [WRITE_SLAVE]   Beat: addr=0x000000fc, data=0xa6fcde4d, wlast=0
# [WRITE_SLAVE]   Beat: addr=0x000000fd, data=0x6cb0b7d9, wlast=0
# [WRITE_SLAVE]   Beat: addr=0x000000fe, data=0xb6a4266d, wlast=0
# [WRITE_SLAVE]   Beat: addr=0x000000ff, data=0xbb45e276, wlast=0
# [WRITE_SLAVE]   Beat: addr=0x00000100, data=0x653b49ca, wlast=0
# [WRITE_SLAVE]   Beat: addr=0x00000101, data=0x5b172db6, wlast=1
# [WRITE_SLAVE] Write burst complete, sending response
# [WRITE_SLAVE] Response acknowledged, ready for next burst
# 
# [MONITOR] Write: Captured WLAST at beat 8 (len=8)
# [DRIVER] Write response captured: bresp=0
# [MONITOR] About to m2.put() write txn: addr=0x000000f9, id=10, time=3935
# [MONITOR] watch_write() CALL #17 starting, time=3935
# [SCOREBOARD] Write: addr=0x000000f9, len=8, size=0 (bytes_per_beat=1)
# [SCOREBOARD]   Beat 0: addr=0x000000f9 -> mem[62] = 0x823f0000
# [SCOREBOARD]   Beat 1: addr=0x000000fa -> mem[62] = 0xacb70000
# [SCOREBOARD]   Beat 2: addr=0x000000fb -> mem[62] = 0xaccb00db
# [SCOREBOARD]   Beat 3: addr=0x000000fc -> mem[63] = 0xa6fc004d
# [SCOREBOARD]   Beat 4: addr=0x000000fd -> mem[63] = 0xa6fcb74d
# [SCOREBOARD]   Beat 5: addr=0x000000fe -> mem[63] = 0xb6fc264d
# [SCOREBOARD]   Beat 6: addr=0x000000ff -> mem[63] = 0xbb452676
# [SCOREBOARD]   Beat 7: addr=0x00000100 -> mem[64] = 0x653b49ca
# [SCOREBOARD]   Beat 8: addr=0x00000101 -> mem[64] = 0x65172dca
# [SCOREBOARD] Write response observed: bresp=0
# [DRIVER] Starting transaction 33 (is_write=0)
# [READ_SLAVE] Read burst accepted: addr=0x000002a4, len=10, size=1
# [MONITOR] Read: addr=0x000002a4, len=10, size=1, burst=0
# [READ_SLAVE] Beat 1: addr=0x000002a4
# [DRIVER] Read beat 0: data=0x0000d68f rresp=0 rid=12
# [MONITOR] Read: Beat 0: data=0x0000d68f, resp=0, rlast=0
# [READ_SLAVE] Beat 2: addr=0x000002a4
# [DRIVER] Read beat 1: data=0x0000d68f rresp=0 rid=12
# [MONITOR] Read: Beat 1: data=0x0000d68f, resp=0, rlast=0
# [READ_SLAVE] Beat 3: addr=0x000002a4
# [DRIVER] Read beat 2: data=0x0000d68f rresp=0 rid=12
# [MONITOR] Read: Beat 2: data=0x0000d68f, resp=0, rlast=0
# [READ_SLAVE] Beat 4: addr=0x000002a4
# [DRIVER] Read beat 3: data=0x0000d68f rresp=0 rid=12
# [MONITOR] Read: Beat 3: data=0x0000d68f, resp=0, rlast=0
# [READ_SLAVE] Beat 5: addr=0x000002a4
# [DRIVER] Read beat 4: data=0x0000d68f rresp=0 rid=12
# [MONITOR] Read: Beat 4: data=0x0000d68f, resp=0, rlast=0
# [READ_SLAVE] Beat 6: addr=0x000002a4
# [DRIVER] Read beat 5: data=0x0000d68f rresp=0 rid=12
# [MONITOR] Read: Beat 5: data=0x0000d68f, resp=0, rlast=0
# [READ_SLAVE] Beat 7: addr=0x000002a4
# [DRIVER] Read beat 6: data=0x0000d68f rresp=0 rid=12
# [MONITOR] Read: Beat 6: data=0x0000d68f, resp=0, rlast=0
# [READ_SLAVE] Beat 8: addr=0x000002a4
# [DRIVER] Read beat 7: data=0x0000d68f rresp=0 rid=12
# [MONITOR] Read: Beat 7: data=0x0000d68f, resp=0, rlast=0
# [READ_SLAVE] Beat 9: addr=0x000002a4
# [DRIVER] Read beat 8: data=0x0000d68f rresp=0 rid=12
# [MONITOR] Read: Beat 8: data=0x0000d68f, resp=0, rlast=0
# [READ_SLAVE] Beat 10: addr=0x000002a4
# [DRIVER] Read beat 9: data=0x0000d68f rresp=0 rid=12
# [MONITOR] Read: Beat 9: data=0x0000d68f, resp=0, rlast=0
# [READ_SLAVE] Read burst complete (beats transferred: 11)
# [DRIVER] Read beat 10: data=0x0000d68f rresp=0 rid=12
# [MONITOR] Read: Beat 10: data=0x0000d68f, resp=0, rlast=1
# [MONITOR] Read: Captured RLAST at beat 10 (expected len=10)
# [DRIVER] Starting transaction 34 (is_write=1)
# [SCOREBOARD] Read Check: addr=0x000002a4, len=10, size=1
# [SCOREBOARD] READ PASS: Beat 0: addr=0x000002a4 (mem[169]), expected=0x0000d68f actual=0x0000d68f
# [SCOREBOARD] READ PASS: Beat 1: addr=0x000002a4 (mem[169]), expected=0x0000d68f actual=0x0000d68f
# [SCOREBOARD] READ PASS: Beat 2: addr=0x000002a4 (mem[169]), expected=0x0000d68f actual=0x0000d68f
# [SCOREBOARD] READ PASS: Beat 3: addr=0x000002a4 (mem[169]), expected=0x0000d68f actual=0x0000d68f
# [SCOREBOARD] READ PASS: Beat 4: addr=0x000002a4 (mem[169]), expected=0x0000d68f actual=0x0000d68f
# [SCOREBOARD] READ PASS: Beat 5: addr=0x000002a4 (mem[169]), expected=0x0000d68f actual=0x0000d68f
# [SCOREBOARD] READ PASS: Beat 6: addr=0x000002a4 (mem[169]), expected=0x0000d68f actual=0x0000d68f
# [SCOREBOARD] READ PASS: Beat 7: addr=0x000002a4 (mem[169]), expected=0x0000d68f actual=0x0000d68f
# [SCOREBOARD] READ PASS: Beat 8: addr=0x000002a4 (mem[169]), expected=0x0000d68f actual=0x0000d68f
# [SCOREBOARD] READ PASS: Beat 9: addr=0x000002a4 (mem[169]), expected=0x0000d68f actual=0x0000d68f
# [SCOREBOARD] READ PASS: Beat 10: addr=0x000002a4 (mem[169]), expected=0x0000d68f actual=0x0000d68f
# [WRITE_SLAVE] Write burst accepted: addr=0x00000192, len=11, size=1
# [MONITOR] Write: addr=0x00000192, len=11, size=1, burst=0
# [WRITE_SLAVE]   Beat: addr=0x00000192, data=0x4a937195, wlast=0
# [WRITE_SLAVE]   Beat: addr=0x00000192, data=0xa3071a46, wlast=0
# [WRITE_SLAVE]   Beat: addr=0x00000192, data=0x02749b04, wlast=0
# [WRITE_SLAVE]   Beat: addr=0x00000192, data=0x7bd261f7, wlast=0
# [WRITE_SLAVE]   Beat: addr=0x00000192, data=0x34980769, wlast=0
# [WRITE_SLAVE]   Beat: addr=0x00000192, data=0xda6ebab4, wlast=0
# [WRITE_SLAVE]   Beat: addr=0x00000192, data=0x44018d88, wlast=0
# [WRITE_SLAVE]   Beat: addr=0x00000192, data=0x147cd928, wlast=0
# [WRITE_SLAVE]   Beat: addr=0x00000192, data=0x9690042d, wlast=0
# [WRITE_SLAVE]   Beat: addr=0x00000192, data=0xe3c530c7, wlast=0
# [WRITE_SLAVE]   Beat: addr=0x00000192, data=0x975c9c2e, wlast=0
# [WRITE_SLAVE]   Beat: addr=0x00000192, data=0x8477e408, wlast=1
# [WRITE_SLAVE] Write burst complete, sending response
# [WRITE_SLAVE] Response acknowledged, ready for next burst
# 
# [MONITOR] Write: Captured WLAST at beat 11 (len=11)
# [DRIVER] Write response captured: bresp=0
# [MONITOR] About to m2.put() write txn: addr=0x00000192, id=7, time=4225
# [MONITOR] watch_write() CALL #18 starting, time=4225
# [SCOREBOARD] Write: addr=0x00000192, len=11, size=1 (bytes_per_beat=2)
# [SCOREBOARD]   Beat 0: addr=0x00000192 -> mem[100] = 0x00007195
# [SCOREBOARD]   Beat 1: addr=0x00000192 -> mem[100] = 0xa3007146
# [SCOREBOARD]   Beat 2: addr=0x00000192 -> mem[100] = 0xa3009b04
# [SCOREBOARD]   Beat 3: addr=0x00000192 -> mem[100] = 0x7bd261f7
# [SCOREBOARD]   Beat 4: addr=0x00000192 -> mem[100] = 0x349861f7
# [SCOREBOARD]   Beat 5: addr=0x00000192 -> mem[100] = 0xda6e61b4
# [SCOREBOARD]   Beat 6: addr=0x00000192 -> mem[100] = 0x44018d88
# [SCOREBOARD]   Beat 7: addr=0x00000192 -> mem[100] = 0x147cd928
# [SCOREBOARD]   Beat 8: addr=0x00000192 -> mem[100] = 0x9690042d
# [SCOREBOARD]   Beat 9: addr=0x00000192 -> mem[100] = 0xe39004c7
# [SCOREBOARD]   Beat 10: addr=0x00000192 -> mem[100] = 0xe390042e
# [SCOREBOARD]   Beat 11: addr=0x00000192 -> mem[100] = 0xe377e42e
# [SCOREBOARD] Write response observed: bresp=0
# [DRIVER] Starting transaction 35 (is_write=0)
# [READ_SLAVE] Read burst accepted: addr=0x000002b6, len=8, size=1
# [MONITOR] Read: addr=0x000002b6, len=8, size=1, burst=0
# [READ_SLAVE] Beat 1: addr=0x000002b6
# [DRIVER] Read beat 0: data=0x35ff0000 rresp=0 rid=2
# [MONITOR] Read: Beat 0: data=0x35ff0000, resp=0, rlast=0
# [READ_SLAVE] Beat 2: addr=0x000002b6
# [DRIVER] Read beat 1: data=0x35ff0000 rresp=0 rid=2
# [MONITOR] Read: Beat 1: data=0x35ff0000, resp=0, rlast=0
# [READ_SLAVE] Beat 3: addr=0x000002b6
# [DRIVER] Read beat 2: data=0x35ff0000 rresp=0 rid=2
# [MONITOR] Read: Beat 2: data=0x35ff0000, resp=0, rlast=0
# [READ_SLAVE] Beat 4: addr=0x000002b6
# [DRIVER] Read beat 3: data=0x35ff0000 rresp=0 rid=2
# [MONITOR] Read: Beat 3: data=0x35ff0000, resp=0, rlast=0
# [READ_SLAVE] Beat 5: addr=0x000002b6
# [DRIVER] Read beat 4: data=0x35ff0000 rresp=0 rid=2
# [MONITOR] Read: Beat 4: data=0x35ff0000, resp=0, rlast=0
# [READ_SLAVE] Beat 6: addr=0x000002b6
# [DRIVER] Read beat 5: data=0x35ff0000 rresp=0 rid=2
# [MONITOR] Read: Beat 5: data=0x35ff0000, resp=0, rlast=0
# [READ_SLAVE] Beat 7: addr=0x000002b6
# [DRIVER] Read beat 6: data=0x35ff0000 rresp=0 rid=2
# [MONITOR] Read: Beat 6: data=0x35ff0000, resp=0, rlast=0
# [READ_SLAVE] Beat 8: addr=0x000002b6
# [DRIVER] Read beat 7: data=0x35ff0000 rresp=0 rid=2
# [MONITOR] Read: Beat 7: data=0x35ff0000, resp=0, rlast=0
# [READ_SLAVE] Read burst complete (beats transferred: 9)
# [DRIVER] Read beat 8: data=0x35ff0000 rresp=0 rid=2
# [MONITOR] Read: Beat 8: data=0x35ff0000, resp=0, rlast=1
# [MONITOR] Read: Captured RLAST at beat 8 (expected len=8)
# [DRIVER] Starting transaction 36 (is_write=0)
# [SCOREBOARD] Read Check: addr=0x000002b6, len=8, size=1
# [SCOREBOARD] READ PASS: Beat 0: addr=0x000002b6 (mem[173]), expected=0x35ff0000 actual=0x35ff0000
# [SCOREBOARD] READ PASS: Beat 1: addr=0x000002b6 (mem[173]), expected=0x35ff0000 actual=0x35ff0000
# [SCOREBOARD] READ PASS: Beat 2: addr=0x000002b6 (mem[173]), expected=0x35ff0000 actual=0x35ff0000
# [SCOREBOARD] READ PASS: Beat 3: addr=0x000002b6 (mem[173]), expected=0x35ff0000 actual=0x35ff0000
# [SCOREBOARD] READ PASS: Beat 4: addr=0x000002b6 (mem[173]), expected=0x35ff0000 actual=0x35ff0000
# [SCOREBOARD] READ PASS: Beat 5: addr=0x000002b6 (mem[173]), expected=0x35ff0000 actual=0x35ff0000
# [SCOREBOARD] READ PASS: Beat 6: addr=0x000002b6 (mem[173]), expected=0x35ff0000 actual=0x35ff0000
# [SCOREBOARD] READ PASS: Beat 7: addr=0x000002b6 (mem[173]), expected=0x35ff0000 actual=0x35ff0000
# [SCOREBOARD] READ PASS: Beat 8: addr=0x000002b6 (mem[173]), expected=0x35ff0000 actual=0x35ff0000
# [READ_SLAVE] Read burst accepted: addr=0x00000192, len=11, size=1
# [MONITOR] Read: addr=0x00000192, len=11, size=1, burst=0
# [READ_SLAVE] Beat 1: addr=0x00000192
# [DRIVER] Read beat 0: data=0xe3770000 rresp=0 rid=15
# [MONITOR] Read: Beat 0: data=0xe3770000, resp=0, rlast=0
# [READ_SLAVE] Beat 2: addr=0x00000192
# [DRIVER] Read beat 1: data=0xe3770000 rresp=0 rid=15
# [MONITOR] Read: Beat 1: data=0xe3770000, resp=0, rlast=0
# [READ_SLAVE] Beat 3: addr=0x00000192
# [DRIVER] Read beat 2: data=0xe3770000 rresp=0 rid=15
# [MONITOR] Read: Beat 2: data=0xe3770000, resp=0, rlast=0
# [READ_SLAVE] Beat 4: addr=0x00000192
